!Keysight Technologies,N5247B,US55470547,A.17.35.10
!Date: Thursday, May 02, 2024 13:56:01
!Correction: S11(C  2-Port  ) 
!S21(C  2-Port  ) 
!S12(C  2-Port  ) 
!S22(C  2-Port  ) 
!S2P File: Measurements: S11, S21, S12, S22:
# Hz S  dB   R 50
10000000 -18.273134 80.252319 -0.086067989 -8.8644848 -0.085984021 -8.8352737 -18.203598 80.250648
344950000 -22.858921 1.9599937 -0.20309792 -64.118637 -0.19979803 -64.11998 -23.647724 29.519331
679900000 -20.41885 -76.249947 -0.26855046 -125.57187 -0.26441965 -125.57844 -20.497339 3.9106009
1014850000 -19.674141 177.43816 -0.34554213 172.737 -0.34106138 172.7312 -17.671705 -13.446227
1349800000 -14.756467 70.337349 -0.51229465 110.74816 -0.50688684 110.74785 -13.567947 -37.538338
1684750000 -10.393873 -12.804084 -0.85150939 49.32407 -0.84603143 49.324875 -10.036143 -75.086754
2019700000 -7.9132109 -85.737259 -1.2428883 -11.833501 -1.2370982 -11.83621 -7.6662531 -119.05503
2354650000 -6.894464 -156.21977 -1.5924106 -70.790237 -1.5866835 -70.795418 -6.5469155 -165.03712
2689600000 -6.5721183 131.02888 -1.7718967 -129.46596 -1.7669733 -129.4679 -6.1336403 150.36154
3024550000 -7.2062421 53.245464 -1.6258014 171.49234 -1.6202005 171.49132 -6.7761588 109.22963
3359500000 -8.5976772 -40.226208 -1.384762 109.36454 -1.3797418 109.35896 -8.2093077 78.744804
3694450000 -8.3018932 -152.43732 -1.5990077 44.654873 -1.5944885 44.651768 -7.679399 61.710987
4029400000 -6.0216041 109.17873 -2.5404389 -18.658192 -2.5343258 -18.658215 -5.1171231 30.409779
4364350000 -5.2666683 34.459312 -3.7104788 -74.764999 -3.6931732 -74.72287 -3.8604896 -12.811274
4699300000 -4.3374391 -27.682989 -3.7430067 -131.20018 -3.7320595 -131.21414 -3.8462141 -53.672459
5034250000 -4.0359697 -91.955101 -4.1937904 174.754 -4.1837549 174.74435 -3.5966551 -91.363586
5369200000 -5.2011642 -162.62041 -3.7690086 118.58887 -3.7653079 118.58151 -3.9053025 -133.81435
5704150000 -6.6134257 124.4181 -3.0019717 62.01725 -2.997577 62.036812 -5.0144238 -175.34639
6039100000 -8.4441814 25.265097 -2.2679265 -1.9509377 -2.2594259 -1.9674313 -6.68784 153.05827
6374050000 -9.0438223 -88.549324 -2.3222091 -66.549713 -2.3112884 -66.540237 -6.9570575 129.23901
6709000000 -7.3757291 174.3311 -2.6795554 -128.32663 -2.6702864 -128.33224 -6.0085611 100.31713
7043950000 -6.0041728 92.362602 -2.9761953 171.57719 -2.9687207 171.58366 -5.1972356 64.73085
7378900000 -5.7626553 15.100034 -2.9800856 112.83283 -2.9725149 112.84077 -5.2084136 27.011421
7713850000 -6.5362411 -66.50518 -2.6625674 52.592613 -2.6572909 52.598625 -6.0355783 -8.164052
8048800000 -7.8976035 -160.6555 -2.4252286 -10.726906 -2.4186704 -10.728658 -6.9710908 -36.585365
8383750000 -8.2399378 96.251595 -2.6375887 -75.018806 -2.6295331 -75.021477 -6.7073221 -63.218346
8718700000 -7.4338698 1.5199378 -3.2068679 -137.72182 -3.2014008 -137.73141 -5.9035792 -98.481316
9053650000 -6.7982945 -82.966316 -3.8798287 161.53249 -3.8632774 161.53961 -5.741878 -142.181
9388600000 -6.6502104 -164.16963 -4.6472511 103.19166 -4.6398916 103.22665 -7.4480872 165.43137
9723550000 -7.4648323 113.3196 -4.6477509 50.943867 -4.6329556 50.844505 -15.97925 137.95206
10058500000 -9.0830841 30.258018 -3.5398595 -9.7313805 -3.5172575 -9.8239174 -11.301374 152.93234
10393450000 -11.117452 -62.62505 -3.3436451 -74.707787 -3.3285835 -74.699394 -8.5742178 113.30583
10728400000 -12.593623 -159.94702 -3.3892188 -136.5416 -3.3803065 -136.51363 -8.1869202 73.111809
11063350000 -12.4427 107.87693 -3.2365122 160.26457 -3.2281606 160.28093 -8.0726881 39.873257
11398300000 -14.205924 13.988268 -3.2001772 95.580276 -3.1940746 95.579102 -8.1804323 8.6806736
11733250000 -17.027439 -128.46284 -3.5882843 28.58395 -3.5812993 28.600538 -7.518672 -16.081007
12068200000 -11.164853 108.84597 -4.8675752 -34.654308 -4.8556995 -34.684662 -5.7277093 -50.356323
12403150000 -7.695343 41.069221 -5.5636659 -92.660271 -5.5546064 -92.657463 -4.8941059 -88.728226
12738100000 -5.5952687 -17.938929 -6.0313869 -151.22169 -6.0276413 -151.2063 -4.1633983 -128.7648
13073050000 -4.9276638 -75.345833 -6.2388196 151.57065 -6.2326474 151.57462 -3.9104531 -171.1991
13408000000 -5.6532583 -133.45476 -5.9435363 93.436775 -5.9355865 93.443802 -4.2570848 146.35114
13742950000 -8.767561 165.45071 -5.4040589 31.445 -5.3978214 31.456495 -5.2593188 107.08076
14077900000 -20.805223 105.95844 -5.3121324 -34.669109 -5.3060341 -34.620209 -6.1196322 76.513702
14412850000 -14.506751 -149.93289 -6.0878673 -99.792183 -6.0813847 -99.779274 -5.3734345 46.078659
14747800000 -9.0254164 155.01169 -7.0686946 -159.29233 -7.0563254 -159.28514 -4.502429 6.693645
15082750000 -7.7465658 105.98405 -7.3906288 145.13957 -7.3821187 145.14961 -4.6141 -36.829678
15417700000 -7.7088909 61.099144 -6.8944383 87.047409 -6.8912058 87.029701 -6.0030518 -78.911263
15752650000 -9.2506437 12.977361 -6.4732428 24.236074 -6.4722729 24.213913 -8.4747229 -110.29832
16087600000 -14.925122 -31.960354 -6.4328842 -39.451267 -6.4277139 -39.413689 -9.3848658 -128.7576
16422550000 -21.238363 22.829618 -6.5900445 -103.80166 -6.5780401 -103.79024 -8.7676058 -151.09792
16757500000 -12.490937 -8.2376356 -7.1229229 -166.50537 -7.1139894 -166.46851 -7.6206999 -179.79469
17092450000 -11.323187 -65.83223 -7.509984 133.66623 -7.5029573 133.68282 -7.2909613 144.52457
17427400000 -14.146491 -132.40488 -7.4006047 73.855347 -7.3938794 73.87883 -8.5300217 113.74564
17762350000 -21.593576 122.94024 -7.1420493 10.068366 -7.1373262 10.085871 -9.0562181 98.828415
18097300000 -19.149424 -30.87018 -7.7627501 -53.191372 -7.7565694 -53.160385 -7.960259 71.160049
18432250000 -17.358004 -104.90685 -7.7378116 -116.0229 -7.7352686 -115.99011 -7.4908748 47.933254
18767200000 -20.023285 -169.91147 -8.1588469 -179.29424 -8.1564903 -179.25992 -6.6984978 18.397039
19102150000 -33.376385 162.53873 -8.4882011 117.83452 -8.4823904 117.88853 -6.6401525 -12.029487
19437100000 -19.970207 -140.06462 -9.0049286 53.35297 -8.9993725 53.414593 -6.2197304 -39.436581
19772050000 -13.316988 159.04146 -10.052845 -10.474986 -10.047029 -10.413397 -5.0007238 -72.019081
20107000000 -10.450623 99.476013 -11.410276 -69.673309 -11.403202 -69.619354 -4.0545135 -110.80977
20441950000 -8.978817 50.516251 -12.024471 -125.67712 -12.021496 -125.64021 -3.694788 -150.69603
20776900000 -7.7665792 -0.060107481 -12.717473 176.23862 -12.71331 176.29111 -3.5022612 170.52332
21111850000 -7.7680974 -49.559757 -13.354706 120.27296 -13.349121 120.33279 -3.5115175 133.44011
21446800000 -8.65909 -97.28289 -13.789937 65.826035 -13.784384 65.890457 -3.6352897 98.823013
21781750000 -10.747081 -145.08052 -13.559097 11.976103 -13.553772 12.054365 -3.8861969 65.464966
22116700000 -15.053843 176.64581 -13.188615 -46.128292 -13.18238 -46.063862 -4.3530636 34.554192
22451650000 -19.21463 169.72552 -13.032224 -104.63109 -13.028257 -104.54496 -4.759007 4.2802663
22786600000 -16.915627 163.30948 -12.827922 -162.87898 -12.81687 -162.78947 -5.3183737 -27.618761
23121550000 -14.318996 125.67831 -12.380304 138.16203 -12.373989 138.23656 -6.3298507 -62.153137
23456500000 -13.961581 79.879745 -11.870931 76.084129 -11.864421 76.144676 -8.3120832 -98.645523
23791450000 -14.936506 39.31356 -11.735535 11.848956 -11.729247 11.932282 -11.772635 -132.02962
24126400000 -15.602708 5.355813 -12.090011 -53.037766 -12.081362 -52.957813 -16.594345 -151.62399
24461350000 -15.68623 -25.725004 -13.375317 -116.0565 -13.367121 -115.93144 -19.011225 -121.17544
24796300000 -14.568177 -59.421581 -13.433184 -168.28525 -13.427915 -168.1945 -11.994035 -166.99127
25131250000 -14.127143 -98.661057 -13.379826 130.30466 -13.374171 130.38216 -11.372972 155.68033
25466200000 -14.428038 -136.0452 -13.772308 69.101418 -13.769312 69.212746 -10.168596 122.77396
25801150000 -14.884117 -169.23947 -14.353581 10.349745 -14.343037 10.464245 -8.833663 89.279533
26136100000 -16.154034 155.38222 -14.580559 -47.727253 -14.568641 -47.593052 -7.8119979 55.720078
26471050000 -19.31538 126.55413 -14.824126 -106.29547 -14.813051 -106.15637 -6.9354615 22.905035
26806000000 -24.643423 121.46008 -15.011613 -165.05782 -14.997562 -164.9756 -6.3935266 -10.111955
27140950000 -23.858006 157.45476 -15.269606 135.95496 -15.256936 136.05402 -6.099844 -42.877377
27475900000 -18.473722 150.42361 -15.495748 77.268875 -15.482775 77.344658 -6.0606174 -76.266037
27810850000 -15.06608 128.34048 -15.758842 18.290636 -15.742424 18.367968 -6.1790791 -109.6622
28145800000 -12.363849 100.67436 -16.122686 -40.01717 -16.101089 -39.910419 -6.1095967 -143.14061
28480750000 -10.353782 66.862625 -16.3941 -97.269753 -16.369696 -97.122314 -5.8584509 -179.42714
28815700000 -9.3573208 28.719627 -16.487476 -154.42184 -16.463171 -154.27512 -5.7423964 141.25308
29150650000 -9.2519808 -11.532099 -16.474339 147.61081 -16.459063 147.7104 -5.8516827 101.22348
29485600000 -9.7918386 -52.356052 -16.486557 89.335487 -16.468185 89.38047 -6.132544 61.84071
29820550000 -10.840774 -92.27211 -16.405827 30.642557 -16.389145 30.719404 -6.6378489 23.302444
30155500000 -12.190911 -128.15277 -16.266783 -29.116301 -16.249565 -29.034431 -7.1974454 -14.757729
30490450000 -12.967606 -157.91158 -16.297434 -90.494858 -16.283901 -90.366409 -8.1228991 -53.602261
30825400000 -12.949735 174.47313 -16.724268 -151.07544 -16.703777 -150.96571 -9.4432268 -92.651962
31160350000 -12.750078 146.52599 -17.063076 151.08769 -17.043493 151.19206 -10.96514 -134.6321
31495300000 -12.713849 120.30568 -17.026157 92.878845 -16.998217 92.938515 -13.113597 178.12929
31830250000 -12.691096 95.697693 -17.083376 32.57243 -17.054977 32.642422 -16.64888 127.52895
32165200000 -12.787929 71.716011 -17.486584 -27.46089 -17.457777 -27.378717 -22.829086 78.674217
32500150000 -13.21644 47.160873 -17.933325 -84.47258 -17.900728 -84.397026 -45.695026 132.98691
32835100000 -13.801889 20.28224 -17.846611 -139.03725 -17.816294 -139.06367 -22.48768 165.44937
33170050000 -15.631732 -12.318551 -16.827011 163.39069 -16.794071 163.38747 -15.251808 131.9075
33505000000 -20.116119 -52.007351 -16.070347 97.607445 -16.045446 97.659805 -10.611033 90.428406
33839950000 -30.933414 -158.58957 -16.356533 31.246073 -16.325735 31.278559 -8.2210884 48.629223
34174900000 -19.610252 76.830215 -16.994827 -31.557642 -16.971796 -31.482384 -7.0073643 10.777331
34509850000 -14.84439 27.031904 -17.518133 -92.024147 -17.491728 -91.956528 -6.3436613 -24.406246
34844800000 -13.067216 -18.103518 -17.895952 -151.87759 -17.871719 -151.76991 -6.0305891 -57.896694
35179750000 -12.588959 -62.459465 -18.305258 148.52615 -18.282513 148.60251 -5.8709497 -92.140396
35514700000 -12.489568 -111.3906 -18.521204 91.994957 -18.487291 92.096909 -5.8695345 -129.82079
35849650000 -13.208179 -165.7552 -17.867674 31.690248 -17.841587 31.774857 -6.5656643 -170.59859
36184600000 -14.24977 145.0014 -17.674212 -32.065502 -17.645452 -31.966761 -7.3719025 149.72447
36519550000 -15.002211 106.33666 -17.678204 -96.073868 -17.642494 -96.018875 -7.8632174 110.93673
36854500000 -14.47863 75.440559 -17.976461 -161.28654 -17.944624 -161.18463 -7.6830378 73.015915
37189450000 -13.627676 43.232033 -18.843637 134.99762 -18.814989 135.04027 -7.1791801 34.001434
37524400000 -13.458032 7.784658 -19.890074 75.673309 -19.852787 75.736412 -7.0140448 -5.7768774
37859350000 -15.308306 -27.817671 -20.539513 22.544075 -20.504362 22.599087 -7.5592918 -42.870899
38194300000 -16.331421 -47.928093 -19.217417 -33.831448 -19.190273 -33.781101 -8.6288071 -75.853218
38529250000 -20.702888 -75.804688 -18.915827 -95.891312 -18.875273 -95.792099 -10.312275 -105.18678
38864200000 -22.153934 -61.200626 -18.208263 -155.23427 -18.174185 -155.19044 -11.982426 -131.0143
39199150000 -20.945906 -68.825287 -17.227758 137.42474 -17.196732 137.4519 -15.184618 -166.30774
39534100000 -18.885262 -87.87468 -17.24572 69.524467 -17.20792 69.536987 -26.110371 -175.9796
39869050000 -18.073654 -126.69624 -17.337055 4.0643454 -17.309858 4.0820355 -21.096754 -98.243248
40204000000 -21.317778 -173.7529 -17.642059 -61.643906 -17.609343 -61.55801 -13.878695 -124.01195
40538950000 -40.881062 98.94838 -18.216486 -124.91393 -18.196243 -124.8783 -10.510753 -167.79907
40873900000 -22.664846 -94.622299 -18.483328 174.53717 -18.443243 174.57291 -9.0903196 140.22917
41208850000 -18.22917 -134.64018 -18.462616 111.44446 -18.436052 111.54149 -8.89394 88.89415
41543800000 -15.284817 -169.49754 -18.865683 49.297916 -18.83629 49.31908 -8.4749899 40.060051
41878750000 -12.54932 153.08931 -18.984489 -11.700166 -18.961098 -11.734436 -7.8657498 -5.7766361
42213700000 -10.965521 108.24484 -19.323261 -74.023491 -19.308807 -73.988953 -7.0863857 -44.917912
42548650000 -10.326035 63.612324 -20.078859 -133.96878 -20.063129 -133.9276 -6.1185169 -82.128922
42883600000 -10.4975 19.88802 -20.644886 171.98322 -20.624735 172.11429 -5.7218027 -119.33456
43218550000 -10.795606 -20.753958 -20.164181 119.21139 -20.151514 119.28512 -5.9562435 -154.05559
43553500000 -10.979348 -59.663471 -19.17976 62.006008 -19.154581 62.188892 -6.7330847 173.9007
43888450000 -11.114108 -100.05124 -18.408457 1.9970112 -18.386641 2.0853307 -7.6615014 144.65884
44223400000 -12.178675 -139.19876 -17.777527 -58.10046 -17.758762 -57.957825 -8.5768776 114.12591
44558350000 -13.391174 -167.79109 -17.216097 -118.94426 -17.197861 -118.83523 -9.7070637 78.025284
44893300000 -13.664371 164.88705 -16.707874 -178.44696 -16.678555 -178.38989 -11.678185 36.802036
45228250000 -13.778516 135.04974 -15.796206 124.22785 -15.771903 124.31715 -14.820436 3.7094088
45563200000 -14.128746 107.35775 -14.539063 62.661411 -14.513268 62.712181 -16.289442 -32.051147
45898150000 -14.841487 78.713181 -13.378063 -3.2501938 -13.35293 -3.2491267 -16.916599 -67.431007
46233100000 -15.402317 49.571709 -12.744341 -70.495277 -12.7254 -70.453224 -16.24025 -87.401466
46568050000 -16.090418 14.530144 -12.541479 -136.73035 -12.520657 -136.66798 -14.189781 -113.80674
46903000000 -17.456371 -28.35487 -12.388117 158.12715 -12.365641 158.1754 -13.123856 -142.07347
47237950000 -20.670908 -66.028259 -12.215722 93.261902 -12.198758 93.272072 -13.38119 -162.8268
47572900000 -21.864843 -90.131012 -12.214069 26.815742 -12.192026 26.80822 -12.621605 -173.25858
47907850000 -21.335266 -126.86922 -12.632462 -39.285583 -12.614715 -39.266491 -11.044754 170.93217
48242800000 -23.707306 -170.05559 -13.385962 -103.30156 -13.371896 -103.26023 -9.283289 150.97635
48577750000 -33.871994 -163.88182 -14.190787 -163.28548 -14.174695 -163.29655 -8.0017452 126.43544
48912700000 -20.701693 -105.03598 -14.368462 136.5406 -14.358764 136.56738 -6.999052 96.175842
49247650000 -12.346323 -140.74637 -14.852728 73.932076 -14.839863 73.908592 -6.6826658 65.20134
49582600000 -8.4521475 175.83966 -15.660902 16.515865 -15.646445 16.565636 -6.5165887 27.57015
49917550000 -6.8560252 136.70142 -15.909931 -39.877403 -15.900317 -39.827953 -7.3349776 -16.59096
50252500000 -6.0730915 106.3579 -15.73566 -96.692184 -15.735392 -96.63382 -8.8659344 -63.670929
50587450000 -5.3551064 74.976837 -15.839596 -155.78036 -15.824233 -155.72415 -10.338781 -111.90932
50922400000 -4.9464269 43.337975 -16.058111 149.90277 -16.03985 149.99109 -11.676326 -160.92723
51257350000 -5.2573166 8.8986826 -14.876719 95.091011 -14.855247 95.134071 -13.680486 156.29128
51592300000 -6.2751894 -22.81938 -13.866579 31.336248 -13.852446 31.355671 -15.72372 134.65462
51927250000 -7.3124576 -53.906101 -13.631121 -32.95702 -13.610819 -32.929291 -15.384091 121.15324
52262200000 -8.7332773 -87.383736 -13.539514 -95.650589 -13.521143 -95.623474 -13.699007 96.040459
52597150000 -11.339752 -117.49655 -13.503585 -159.66525 -13.486641 -159.64708 -14.622058 67.742302
52932100000 -12.20011 -120.14178 -14.203729 139.58188 -14.183535 139.56863 -15.523161 57.96093
53267050000 -8.7077999 -153.21771 -13.52491 82.849998 -13.51517 82.807312 -13.885324 48.385609
53602000000 -7.7126417 163.8979 -13.088288 17.406935 -13.077693 17.355312 -11.759013 14.187799
53936950000 -8.6163454 124.35939 -13.454781 -46.279224 -13.440204 -46.292442 -12.584903 -26.572718
54271900000 -10.151111 101.11977 -13.187714 -106.77469 -13.170356 -106.80519 -14.890109 -60.045826
54606850000 -10.926709 79.99015 -13.338813 -171.89595 -13.32631 -171.88155 -18.913229 -86.89566
54941800000 -11.397871 61.581642 -13.508925 126.39238 -13.490524 126.31446 -23.438028 -88.875504
55276750000 -12.081635 48.828461 -13.342815 62.998299 -13.324714 62.976852 -23.415571 -73.423302
55611700000 -11.474537 48.251537 -13.369925 -3.1517398 -13.363195 -3.1926079 -18.914314 -75.389778
55946650000 -8.4303722 33.492744 -14.344782 -69.146645 -14.330859 -69.207848 -13.568308 -104.95864
56281600000 -6.423346 6.5501671 -15.084049 -127.81375 -15.078454 -127.91181 -10.070775 -150.89798
56616550000 -5.3051672 -22.38262 -15.20476 171.64108 -15.193466 171.59628 -8.2002363 154.08795
56951500000 -4.7300897 -53.804218 -15.493253 110.10612 -15.481976 110.07741 -8.440589 95.008369
57286450000 -4.8529925 -84.887749 -15.708785 49.280704 -15.698935 49.260857 -9.9875937 32.201984
57621400000 -5.0826201 -114.87193 -16.025572 -12.368841 -16.021029 -12.384489 -12.391798 -37.464542
57956350000 -5.2939858 -146.33553 -16.277927 -72.710808 -16.263079 -72.725029 -13.902319 -106.68784
58291300000 -5.5101218 -178.38297 -16.054823 -132.98401 -16.034359 -132.98099 -15.247834 -164.72844
58626250000 -5.7460809 148.87599 -15.854363 162.57686 -15.836018 162.58026 -17.434177 159.58682
58961200000 -5.9715614 116.32372 -16.397818 97.108841 -16.37669 96.996742 -17.48966 153.52516
59296150000 -6.1652212 83.519592 -17.084373 38.907578 -17.063171 38.827862 -13.872438 138.28761
59631100000 -6.778985 50.298115 -16.563078 -18.463524 -16.544487 -18.500328 -11.052679 99.809357
59966050000 -8.337122 18.972889 -15.350671 -81.41243 -15.327465 -81.532738 -11.059513 50.340893
60301000000 -10.69833 -1.0906229 -14.463966 -152.52252 -14.446442 -152.66592 -15.141104 -6.3572412
60635950000 -11.086742 -13.367082 -14.454157 135.1628 -14.440289 135.1149 -29.143583 -59.175365
60970900000 -11.574829 -34.706459 -14.813842 62.621361 -14.799291 62.360611 -27.185972 38.693584
61305850000 -13.925745 -56.118431 -15.478465 -9.0467434 -15.450348 -9.0836887 -22.853567 -70.25322
61640800000 -17.59413 -35.659157 -16.336229 -83.032074 -16.326019 -83.047363 -14.552275 -157.85529
61975750000 -11.438991 -30.661383 -18.348902 -157.62793 -18.331619 -157.82774 -9.2447453 142.379
62310700000 -7.9502649 -61.174644 -21.160255 137.26463 -21.136383 137.24707 -7.2825541 93.196556
62645650000 -6.5612726 -93.987144 -22.974972 78.660522 -22.9611 78.636475 -7.3229361 49.349045
62980600000 -6.2227159 -124.81775 -24.495169 16.578527 -24.494963 16.56245 -9.9894867 1.8407955
63315550000 -6.2595563 -157.10501 -26.494278 -47.140923 -26.510511 -47.099773 -19.7323 -68.320946
63650500000 -7.0975623 169.02388 -29.848013 -103.63473 -29.838757 -103.68697 -14.555634 120.76313
63985450000 -8.6328707 134.62805 -33.047989 -129.81081 -33.041946 -130.27788 -8.2975082 75.158432
64320400000 -10.457189 97.266373 -29.263428 -171.81474 -29.240374 -171.66229 -5.5511041 41.324402
64655350000 -12.281029 54.730392 -27.6593 124.8425 -27.677073 124.7407 -4.2850876 9.067852
64990300000 -12.803889 -2.7417741 -27.396332 66.376259 -27.367256 66.470772 -4.0974059 -20.632509
65325250000 -12.675323 -66.907112 -26.228296 10.469407 -26.225969 10.546075 -4.3338218 -47.706463
65660200000 -13.052062 -119.99517 -24.587406 -50.248016 -24.550943 -50.189167 -4.9717145 -75.209152
65995150000 -12.674266 -165.2774 -23.736523 -115.85066 -23.70986 -115.84833 -5.7398467 -104.28507
66330100000 -14.578794 153.78101 -22.521675 -179.68149 -22.481815 -179.80185 -6.947299 -142.14819
66665050000 -17.682564 134.5787 -21.896997 108.146 -21.885632 108.12584 -8.851367 166.91566
67000000000 -19.666735 116.56174 -22.682293 39.633274 -22.658594 39.702072 -10.539573 98.420906
