!Keysight Technologies,N5247B,US55470547,A.17.35.10
!Date: Thursday, May 02, 2024 13:51:29
!Correction: S11(C  2-Port  ) 
!S21(C  2-Port  ) 
!S12(C  2-Port  ) 
!S22(C  2-Port  ) 
!S2P File: Measurements: S11, S21, S12, S22:
# Hz S  dB   R 50
10000000 -18.179544 80.014679 -0.083878316 -8.7992706 -0.081430472 -8.7968254 -18.123421 80.092491
344950000 -21.039715 7.2714739 -0.20091923 -63.061321 -0.19802548 -63.058575 -21.605453 27.892694
679900000 -18.115568 -62.867191 -0.27427316 -123.36987 -0.27127752 -123.37247 -18.332235 -6.7873759
1014850000 -18.421814 -151.71722 -0.33333778 176.22102 -0.32959369 176.21962 -17.046154 -33.173779
1349800000 -16.613487 96.531868 -0.43091795 115.46276 -0.42685774 115.46516 -14.969091 -51.852497
1684750000 -12.245455 2.2949488 -0.67192471 54.884571 -0.66799128 54.890404 -11.702821 -79.886261
2019700000 -9.1511335 -74.324066 -0.98895204 -5.8436255 -0.98443317 -5.8413239 -8.9105272 -118.66818
2354650000 -7.6769772 -145.78639 -1.3399651 -64.403061 -1.3351611 -64.402489 -7.3674479 -162.86751
2689600000 -6.8730178 141.70618 -1.6073461 -122.60415 -1.6033469 -122.60228 -6.4978871 153.19537
3024550000 -7.0097628 67.297249 -1.5881214 179.76096 -1.5830276 179.77122 -6.6932607 111.0848
3359500000 -8.0218992 -17.071417 -1.3369772 120.06855 -1.3323767 120.06626 -7.8472033 76.154877
3694450000 -8.7138786 -120.61429 -1.2788274 57.217274 -1.2750571 57.233776 -8.4408636 55.36134
4029400000 -7.0546002 134.40053 -1.8932326 -6.2890849 -1.8917234 -6.2792883 -6.2937837 31.602234
4364350000 -6.118753 51.937111 -3.1613183 -64.049271 -3.1300938 -64.173218 -4.445806 -8.7858028
4699300000 -4.742763 -10.105231 -3.3095908 -119.15485 -3.3016562 -119.03189 -4.1749811 -49.869469
5034250000 -4.0416441 -77.042595 -3.7119422 -173.59792 -3.709779 -173.58459 -4.044333 -86.722664
5369200000 -4.7326965 -145.53781 -3.583518 131.14252 -3.5798888 131.15907 -3.8763347 -128.61165
5704150000 -5.905385 145.43846 -3.1104028 76.856903 -3.0858459 76.879845 -4.6155939 -171.42209
6039100000 -6.9369149 60.459026 -2.2495799 16.196154 -2.2497759 16.227871 -6.12988 153.39137
6374050000 -8.2455988 -40.260216 -1.9886078 -46.676735 -1.9788142 -46.645981 -7.0666223 127.04743
6709000000 -7.7009768 -141.16406 -2.1632159 -108.57947 -2.1619747 -108.60298 -6.516767 101.72236
7043950000 -6.3024535 130.56146 -2.5288832 -168.78487 -2.5202365 -168.7543 -5.4549532 69.251671
7378900000 -5.56844 51.913109 -2.7175047 133.41873 -2.713748 133.42624 -5.0201626 32.47411
7713850000 -5.6969986 -25.733809 -2.567528 75.586563 -2.5624261 75.609802 -5.3516984 -4.0107474
8048800000 -6.5725126 -110.47342 -2.2513659 15.464078 -2.2449667 15.484463 -6.2045817 -36.658691
8383750000 -7.321631 153.85295 -2.1603584 -46.725685 -2.1547029 -46.70787 -6.6377277 -64.217285
8718700000 -6.96805 57.015518 -2.4961569 -108.92592 -2.4891527 -108.90092 -6.0363669 -94.467735
9053650000 -6.1981325 -30.118338 -3.0888515 -169.32161 -3.0855584 -169.29398 -5.3060112 -132.79393
9388600000 -5.7239404 -110.50738 -3.8153896 132.65436 -3.8042486 132.72401 -5.2721004 -178.99432
9723550000 -6.0464344 171.32733 -4.3331418 80.245361 -4.3375731 80.520531 -7.6618938 128.84438
10058500000 -7.2848468 97.905716 -3.1264005 26.747471 -3.128762 26.83087 -12.256379 114.70427
10393450000 -8.467658 20.782408 -2.3154626 -36.087296 -2.3061497 -35.993671 -10.852639 96.121071
10728400000 -10.162373 -71.657845 -2.0597377 -99.517174 -2.0548048 -99.554169 -10.120964 68.51133
11063350000 -10.671671 -174.06506 -2.132957 -162.07768 -2.1275728 -161.97391 -9.0291939 40.521534
11398300000 -9.6634874 95.304871 -2.2630517 136.74954 -2.2560842 136.78481 -7.8857818 5.1254444
11733250000 -9.9406691 14.033372 -2.2196813 75.816673 -2.2228868 75.843987 -8.0538864 -32.731297
12068200000 -13.86341 -80.058922 -2.2130167 12.594232 -2.2047937 12.669353 -9.0976 -61.60125
12403150000 -15.489877 135.81975 -2.5712366 -50.304653 -2.5636997 -50.23917 -8.680768 -82.9375
12738100000 -8.6765814 39.384094 -3.1500337 -113.18065 -3.152045 -113.19904 -6.4863129 -111.01101
13073050000 -5.3083735 -30.138931 -4.1011796 -172.98167 -4.0988941 -172.90622 -4.5825014 -151.87813
13408000000 -3.9960251 -91.154137 -4.7775884 131.34239 -4.7650828 131.34378 -3.6977212 163.68529
13742950000 -3.7233012 -149.68938 -4.8342004 76.98101 -4.8271141 77.026756 -3.5027385 118.90302
14077900000 -4.5443392 148.74805 -4.2434683 20.760382 -4.2374835 20.795565 -4.0174274 75.031975
14412850000 -7.8159056 76.312386 -3.4236507 -41.362907 -3.4152195 -41.303726 -5.4941034 36.258038
14747800000 -16.360575 -46.716198 -3.5032585 -108.54584 -3.4959297 -108.49996 -6.2030587 11.084061
15082750000 -11.210767 169.00584 -4.7879372 -170.07639 -4.7736492 -169.99286 -4.8399596 -22.328962
15417700000 -8.2012491 108.54752 -5.2834501 137.09439 -5.2819061 137.15671 -4.6006908 -64.265991
15752650000 -6.2071066 59.382465 -4.7950535 81.409897 -4.7823095 81.337257 -5.2293468 -104.65376
16087600000 -5.7744956 1.9865087 -4.1766362 22.968628 -4.1653452 22.985376 -6.6063476 -142.17599
16422550000 -8.0365267 -67.834984 -3.3337293 -38.370289 -3.3313177 -38.348057 -8.956851 -174.60269
16757500000 -14.468801 171.52873 -2.7364421 -105.11034 -2.7351274 -105.09658 -10.896424 179.16179
17092450000 -10.120916 26.537643 -3.3788097 -172.85098 -3.3691704 -172.78001 -7.5630784 160.86789
17427400000 -7.4729962 -54.127296 -4.5589848 127.24702 -4.5511236 127.27134 -6.1813803 120.92812
17762350000 -7.7347469 -127.05171 -4.7910404 73.607178 -4.7709112 73.756096 -7.5877557 86.265533
18097300000 -10.154908 152.30066 -4.274271 15.656811 -4.2696838 15.687652 -7.1133265 65.081444
18432250000 -12.07177 50.929485 -3.4619689 -46.046318 -3.4599259 -46.012741 -7.6427312 35.460041
18767200000 -11.600388 -63.169361 -3.2454555 -110.58407 -3.2390215 -110.49931 -7.6523719 10.304078
19102150000 -10.47784 -160.08472 -3.2880735 -173.97256 -3.2766442 -173.937 -7.4580183 -18.450983
19437100000 -10.448915 112.00242 -3.2598503 122.83587 -3.2598951 122.87106 -7.5261755 -48.676895
19772050000 -11.913684 18.32988 -3.2462578 58.224346 -3.2467971 58.321579 -7.9187737 -79.094299
20107000000 -13.125697 -100.12187 -3.5531335 -8.348403 -3.5514073 -8.3062172 -7.6113167 -100.90159
20441950000 -9.2396717 146.04205 -4.5725927 -74.684967 -4.5659595 -74.633713 -5.3146081 -131.0004
20776900000 -5.7286744 64.462753 -6.1189051 -136.55029 -6.1131864 -136.51187 -3.5396698 -171.13869
21111850000 -3.956414 -1.7263117 -7.6360421 167.44379 -7.6297383 167.4659 -2.6143775 147.63855
21446800000 -3.2289369 -60.755367 -8.6233339 115.95483 -8.6160107 116.02386 -2.2095633 108.09364
21781750000 -3.0253375 -117.66724 -8.7531004 66.844528 -8.7479095 66.864822 -2.2178626 69.895813
22116700000 -3.4261277 -178.1823 -7.9595509 15.137094 -7.9452095 15.193661 -2.7471859 33.814732
22451650000 -4.9461689 115.11951 -6.8544068 -40.861721 -6.8535361 -40.759491 -3.5463026 0.044175196
22786600000 -7.9184427 37.907841 -5.7638969 -100.26366 -5.7608242 -100.15823 -4.5707335 -33.028378
23121550000 -12.021029 -60.810535 -4.8273559 -162.51578 -4.8127413 -162.46841 -5.7489738 -66.353951
23456500000 -12.980128 -174.05998 -4.1449943 133.54436 -4.1389279 133.55302 -7.2568369 -103.07049
23791450000 -12.552652 97.734436 -3.6915565 69.056946 -3.6910865 69.143875 -9.6642361 -143.56624
24126400000 -14.711568 35.567345 -3.3753614 3.0487022 -3.3701336 3.1152377 -13.89094 164.31763
24461350000 -13.109207 7.5721416 -4.4252777 -66.650398 -4.4111443 -66.58947 -22.763027 -12.890065
24796300000 -16.503109 -13.086524 -4.0355749 -119.40726 -4.0286841 -119.32111 -16.265003 -128.27394
25131250000 -10.252845 -55.125923 -4.2036581 174.84457 -4.1951246 174.87782 -10.73552 -169.02371
25466200000 -8.3996372 -110.27616 -4.7595053 113.21091 -4.7545772 113.26702 -7.4878407 140.56018
25801150000 -7.6718688 -159.86835 -5.2185183 54.201923 -5.2122412 54.265575 -6.0809226 91.753273
26136100000 -7.7250638 141.36174 -5.308445 -2.8603778 -5.3030553 -2.8176115 -5.8674288 48.56908
26471050000 -9.8657894 69.576088 -4.7371764 -60.236401 -4.7300754 -60.167507 -6.1801853 10.081969
26806000000 -13.609921 -42.985878 -3.9864502 -124.10459 -3.9834347 -124.04478 -7.3193154 -20.931816
27140950000 -10.787209 -161.336 -4.1354313 170.38359 -4.1279907 170.42393 -7.2141218 -45.864014
27475900000 -8.8445807 121.01602 -4.5154819 109.00025 -4.5177884 109.08157 -7.0225859 -78.910942
27810850000 -9.9978838 47.882809 -4.4349413 48.720554 -4.4229879 48.717751 -7.8634987 -111.53615
28145800000 -14.525599 -66.032585 -4.1734109 -15.513692 -4.1676288 -15.421005 -8.4771671 -134.74146
28480750000 -9.2413664 155.76425 -4.7006469 -82.394875 -4.6969571 -82.356995 -6.7314782 -160.35336
28815700000 -5.2117558 78.082191 -5.975873 -144.57767 -5.9730659 -144.50786 -4.9767923 159.0383
29150650000 -3.8895893 16.936321 -7.0000081 159.12711 -6.9957581 159.17801 -4.1400361 114.62186
29485600000 -3.6438627 -39.116802 -7.4118571 104.76526 -7.4053092 104.83638 -3.8053575 70.003334
29820550000 -4.019793 -94.391525 -7.272294 50.237904 -7.2680917 50.322186 -3.8731239 24.68943
30155500000 -5.0434046 -151.19757 -6.6807208 -6.4494267 -6.6771293 -6.3872404 -4.5611844 -21.539612
30490450000 -7.2051835 149.97948 -5.9633303 -66.240692 -5.9589949 -66.181557 -6.2420497 -67.129768
30825400000 -11.889075 87.48069 -5.4271469 -128.88728 -5.4206004 -128.81635 -8.7847586 -107.74512
31160350000 -21.959209 -5.8708696 -5.240056 168.08081 -5.2244296 168.16754 -10.620472 -143.3214
31495300000 -15.258862 -153.15022 -5.0931878 105.36847 -5.0823574 105.45296 -11.164745 173.33659
31830250000 -10.321228 144.26109 -5.1179953 42.32954 -5.1199808 42.411068 -11.473907 115.40269
32165200000 -9.2313194 100.21886 -5.1950731 -20.426603 -5.1955442 -20.336576 -12.263165 42.568878
32500150000 -8.6097946 67.02166 -5.3942494 -84.214264 -5.3925071 -84.112213 -13.134091 -45.951912
32835100000 -7.5321279 28.031952 -6.0425353 -146.56416 -6.0516701 -146.47339 -11.744069 -134.77861
33170050000 -7.5709 -21.495693 -6.3907495 155.0952 -6.3896866 155.18166 -8.4242115 152.76617
33505000000 -8.5225468 -83.575554 -6.3563857 94.807915 -6.3536997 94.932037 -6.4264679 93.424782
33839950000 -9.2395306 -164.63753 -6.4977694 33.452297 -6.4966288 33.523148 -5.4172664 46.388203
34174900000 -8.0954218 110.49836 -6.8226852 -27.023331 -6.8115296 -26.935205 -4.7145181 4.9466496
34509850000 -6.7239165 38.882679 -6.9989705 -84.816467 -6.9904618 -84.694885 -4.4919677 -35.561825
34844800000 -6.4694457 -25.799107 -6.6103926 -142.48682 -6.6103916 -142.38268 -5.0443478 -75.619331
35179750000 -8.1481018 -90.522354 -5.847568 155.61739 -5.8445506 155.69246 -7.0220909 -113.86853
35514700000 -12.408907 -147.52872 -6.0180964 90.172325 -6.0110807 90.243156 -8.6205168 -136.86566
35849650000 -18.250582 156.91258 -5.7629476 30.265125 -5.7598548 30.361103 -9.4050531 -170.53871
36184600000 -22.651653 -150.68077 -5.3565507 -35.14658 -5.3566456 -35.074688 -9.7832184 162.27788
36519550000 -12.324074 162.09239 -5.5621572 -101.46371 -5.559761 -101.39643 -8.4444838 128.58968
36854500000 -8.4928904 100.71104 -6.2122841 -166.12694 -6.2089744 -166.02423 -6.8063507 85.628845
37189450000 -7.4474459 42.846199 -7.0859485 133.05905 -7.0857062 133.19398 -5.9487853 40.474308
37524400000 -8.0278063 -11.136811 -7.4850707 75.805107 -7.4859424 75.903564 -5.5122085 -3.4692733
37859350000 -10.247495 -69.824646 -7.2343698 18.597433 -7.2331815 18.712103 -6.1317859 -48.360142
38194300000 -14.963442 -137.81688 -6.3477569 -44.00325 -6.3420286 -43.879887 -8.6248007 -82.554665
38529250000 -17.947838 98.628883 -6.4509048 -108.98695 -6.4444766 -108.88763 -10.426407 -107.299
38864200000 -13.889926 3.9607942 -6.7532511 -170.34637 -6.7533293 -170.28595 -10.796212 -129.32288
39199150000 -12.965166 -48.862698 -6.3620706 129.09833 -6.3606825 129.19864 -12.011766 -177.56891
39534100000 -12.14336 -87.028206 -5.7356949 64.425987 -5.7354074 64.538605 -16.576437 89.030159
39869050000 -10.460423 -132.68669 -5.588377 -4.9274716 -5.5869217 -4.8466988 -13.54202 -37.62656
40204000000 -10.216517 160.22937 -6.4902444 -73.817451 -6.4871731 -73.702385 -8.5045977 -106.61352
40538950000 -12.338428 77.808907 -8.0512218 -136.02306 -8.0515146 -135.91222 -6.3370652 -166.19817
40873900000 -13.001183 -1.6479498 -8.3458767 168.86032 -8.3439226 168.96265 -6.3686333 138.48102
41208850000 -10.623016 -80.564598 -8.7642164 104.93193 -8.7614145 105.00099 -5.8349199 88.982857
41543800000 -9.3397989 -141.94977 -9.5561781 48.310596 -9.555378 48.354912 -5.4270825 34.879269
41878750000 -7.4102321 167.14316 -9.6446714 -9.4690294 -9.6521063 -9.4347286 -5.1201138 -13.686812
42213700000 -6.1700344 113.20133 -10.04813 -66.717072 -10.051729 -66.72226 -4.6866074 -58.513752
42548650000 -5.8069654 59.282471 -10.016827 -119.25866 -10.016059 -119.21785 -4.6203876 -101.83274
42883600000 -6.4315577 4.3142152 -8.8224974 -173.26044 -8.8240948 -173.10342 -5.6827302 -144.95642
43218550000 -8.600481 -50.122581 -7.1896381 125.16826 -7.2063208 125.30414 -9.0681896 179.03764
43553500000 -13.355285 -85.447449 -6.242353 57.406246 -6.2474327 57.440342 -12.584733 -179.6965
43888450000 -12.949882 -93.255074 -6.3594213 -9.3390102 -6.3530912 -9.2702942 -9.1420078 169.18745
44223400000 -10.87755 -131.50148 -6.4794507 -70.593498 -6.4808493 -70.503998 -7.853013 129.71446
44558350000 -10.75209 -178.31096 -6.161283 -132.27148 -6.1662283 -132.15553 -8.5916042 83.950249
44893300000 -13.191987 131.55275 -5.7561116 164.83688 -5.763001 164.91954 -11.35116 35.911415
45228250000 -22.291931 113.36304 -5.5046248 101.88688 -5.5033569 101.98428 -17.018164 8.390048
45563200000 -17.02544 147.45337 -5.4792728 38.629356 -5.47963 38.720318 -16.622086 0.75631094
45898150000 -12.899851 109.03671 -5.2447844 -24.10033 -5.2456808 -24.026688 -13.176003 -43.298866
46233100000 -11.333337 63.589928 -4.9033747 -87.545456 -4.9011493 -87.426704 -11.792501 -90.59359
46568050000 -11.813736 9.9997826 -4.6783247 -152.06375 -4.6804132 -151.94237 -12.212601 -133.61331
46903000000 -14.873779 -45.383675 -4.5477262 142.30032 -4.5447412 142.41974 -14.022736 -158.20569
47237950000 -20.897287 -67.025139 -4.6352258 76.713341 -4.6387386 76.825462 -14.922482 -169.54234
47572900000 -15.580037 -78.982712 -4.8763266 10.578924 -4.8765888 10.707951 -15.183182 -172.16263
47907850000 -11.970855 -148.11003 -5.502944 -56.141205 -5.5031843 -56.034634 -11.791228 -169.09407
48242800000 -12.276199 131.74338 -6.699275 -120.27985 -6.6924171 -120.15905 -7.4956241 162.502
48577750000 -13.932329 43.741917 -7.8956108 -179.57838 -7.8915777 -179.45811 -5.8931103 126.61385
48912700000 -11.986929 -52.94857 -8.492815 124.65542 -8.4916553 124.78934 -5.1511912 90.504646
49247650000 -8.2200489 -123.785 -8.7311783 65.701111 -8.7192059 65.847809 -5.3147101 52.808014
49582600000 -5.7840605 -177.24962 -9.1952715 9.1818895 -9.1986809 9.3543358 -5.7113776 11.512306
49917550000 -4.7299786 137.30151 -9.1949701 -46.350136 -9.1961451 -46.234634 -6.689074 -42.867043
50252500000 -4.5059185 101.44539 -8.6043282 -103.13124 -8.6005211 -103.05817 -9.6559401 -108.94418
50587450000 -4.5941472 68.580261 -8.0933456 -163.88698 -8.0903969 -163.72493 -14.752276 173.64655
50922400000 -4.6704822 37.959194 -8.0345631 135.02632 -8.0351191 135.16191 -22.15307 54.431229
51257350000 -5.2142553 4.4169621 -7.554739 75.845909 -7.5506907 75.978729 -15.028265 -82.392319
51592300000 -6.0423026 -26.349388 -7.2980576 12.453671 -7.2896223 12.578606 -9.4803123 -164.14249
51927250000 -7.089942 -62.377098 -7.1727729 -48.291523 -7.168807 -48.179928 -8.3232956 130.7151
52262200000 -9.9777164 -100.24968 -6.5977025 -110.46536 -6.596559 -110.34116 -10.279089 74.721024
52597150000 -15.519196 -114.64176 -6.1063051 -177.97139 -6.1071229 -177.79753 -19.293333 42.717079
52932100000 -11.632866 -99.313423 -7.0633874 113.43398 -7.0527754 113.54482 -13.209794 98.4767
53267050000 -6.9935164 -143.35252 -7.7627401 54.424637 -7.7504096 54.5228 -8.2881918 51.440647
53602000000 -5.6280837 164.23108 -8.3350315 -5.236968 -8.3326626 -5.1030035 -7.0330229 -3.040494
53936950000 -6.6247988 117.05309 -8.4225197 -62.151028 -8.4230385 -62.033985 -8.5789061 -64.271164
54271900000 -9.4696941 86.155647 -7.2396579 -122.39381 -7.2419538 -122.16288 -13.227517 -129.34457
54606850000 -11.528521 62.94656 -7.3358574 169.28224 -7.3336759 169.41499 -20.162224 121.23206
54941800000 -13.710427 50.346737 -7.6551814 106.71322 -7.6526499 106.85538 -18.303637 8.8114433
55276750000 -15.590731 41.573441 -7.1865044 41.354347 -7.1905293 41.517101 -16.745504 -34.488674
55611700000 -13.499006 77.59333 -7.669302 -29.775349 -7.6656051 -29.625126 -12.091125 -65.305542
55946650000 -7.2043719 50.230587 -9.3490343 -97.880318 -9.3502674 -97.688904 -8.3343964 -116.1617
56281600000 -4.7898583 13.656562 -11.447119 -155.98267 -11.453083 -155.86188 -6.8691678 -172.62317
56616550000 -3.8748789 -21.053974 -12.104545 153.4129 -12.104328 153.52194 -6.3369164 130.58304
56951500000 -3.578001 -54.735825 -11.867469 97.246162 -11.861135 97.395531 -6.8267493 63.578419
57286450000 -3.7601421 -87.535194 -11.610474 39.087471 -11.611464 39.244831 -8.5679903 -16.112001
57621400000 -4.1419463 -120.07107 -11.24364 -21.132366 -11.239569 -20.9881 -10.042732 -111.55956
57956350000 -4.6816578 -153.47139 -10.935156 -83.763084 -10.931091 -83.65863 -11.223045 151.51025
58291300000 -5.344389 173.5956 -10.518366 -146.27921 -10.520216 -146.15179 -12.719399 50.407932
58626250000 -5.9845519 142.60645 -10.284746 147.04645 -10.292421 147.16809 -11.872222 -63.832905
58961200000 -6.1470089 111.62435 -10.751377 80.018471 -10.746565 80.152725 -8.4356613 -152.27008
59296150000 -6.3939137 77.678551 -11.368541 17.744476 -11.372846 17.959711 -6.7948923 143.24234
59631100000 -7.4316683 44.077923 -11.389884 -42.641846 -11.375463 -42.484261 -6.6504674 87.261978
59966050000 -9.6533098 15.032956 -10.713705 -105.30823 -10.709 -105.1657 -8.5373211 29.302488
60301000000 -11.765643 7.202013 -9.7109919 -175.73248 -9.7235527 -175.60738 -14.653598 -41.014767
60635950000 -9.9181738 -11.296523 -9.6432247 108.42775 -9.6343203 108.54337 -25.436022 131.94101
60970900000 -10.774314 -50.205727 -10.356197 31.589939 -10.35909 31.725393 -15.780361 14.210894
61305850000 -19.095682 -94.684441 -11.600842 -44.449196 -11.621875 -44.32209 -13.200244 -84.883873
61640800000 -14.959209 27.478754 -13.38932 -123.33986 -13.372252 -123.19802 -8.7261267 -163.1506
61975750000 -7.6186395 -21.560286 -16.714363 158.72536 -16.729589 158.83676 -5.7720885 132.57637
62310700000 -5.5426121 -62.566357 -21.476711 92.983208 -21.47238 93.239899 -4.8224263 80.791367
62645650000 -4.7939219 -100.27687 -25.272486 42.363335 -25.287949 42.598385 -5.2232533 32.101112
62980600000 -5.1891088 -133.73715 -25.912403 -11.202364 -25.939157 -10.898795 -7.4366055 -28.232025
63315550000 -5.7201881 -165.47525 -26.918377 -95.799812 -26.902601 -95.179962 -10.864782 -129.63249
63650500000 -6.7308617 160.40329 -32.553234 149.18959 -32.531395 149.13002 -7.8933802 125.41254
63985450000 -8.4564838 124.41531 -31.108486 4.3471317 -31.112743 4.9711571 -5.3283639 70.80368
64320400000 -10.452689 87.754196 -25.276634 -99.972725 -25.270859 -100.02393 -4.1377497 33.127598
64655350000 -11.177051 44.797127 -22.8218 177.16751 -22.815817 177.37697 -3.8578472 1.1495453
64990300000 -9.9246912 -16.454741 -19.966887 102.1707 -19.959429 102.35826 -4.3765178 -27.160988
65325250000 -8.8856535 -86.247253 -18.239742 19.509493 -18.259094 19.740013 -4.7621818 -48.992023
65660200000 -9.4385347 -147.75467 -17.655655 -58.75666 -17.651432 -58.615898 -4.990252 -76.231705
65995150000 -10.973696 162.02904 -17.793516 -138.65097 -17.791929 -138.42854 -5.6486168 -105.81049
66330100000 -13.63284 117.68353 -18.817863 144.04187 -18.82399 144.20485 -6.2930069 -145.90613
66665050000 -18.980202 74.848434 -21.281113 69.637451 -21.290743 69.746132 -7.9277048 153.55969
67000000000 -25.708191 -28.663542 -24.966276 22.240591 -24.951904 22.237297 -9.6613302 76.868645
