!Keysight Technologies,N5247B,US55470547,A.17.35.10
!Date: Thursday, May 02, 2024 13:50:43
!Correction: S11(C  2-Port  ) 
!S21(C  2-Port  ) 
!S12(C  2-Port  ) 
!S22(C  2-Port  ) 
!S2P File: Measurements: S11, S21, S12, S22:
# Hz S  dB   R 50
10000000 -18.177347 80.038368 -0.084465817 -8.8014498 -0.081382468 -8.7956219 -18.126701 80.080238
344950000 -20.922403 7.6571851 -0.20136443 -62.980198 -0.1982967 -62.979919 -21.468597 27.908115
679900000 -17.954128 -62.041203 -0.2765792 -123.20151 -0.27276596 -123.20317 -18.166355 -7.3051634
1014850000 -18.263596 -149.69441 -0.33451021 176.49255 -0.33078939 176.49124 -16.931362 -34.464417
1349800000 -16.717402 99.03804 -0.42775375 115.83915 -0.42340484 115.84055 -15.027331 -53.283821
1684750000 -12.400034 3.5798333 -0.66985232 55.337429 -0.665775 55.340664 -11.840742 -80.775543
2019700000 -9.2732162 -73.237129 -0.96982557 -5.3411803 -0.96485424 -5.33851 -9.0319805 -118.79169
2354650000 -7.7723131 -144.84932 -1.319393 -63.866436 -1.3144183 -63.863777 -7.4594765 -162.76875
2689600000 -6.9270372 142.56853 -1.5901241 -122.06271 -1.5856037 -122.06084 -6.5529828 153.40852
3024550000 -7.0317321 68.294144 -1.5794868 -179.6263 -1.5748868 -179.62378 -6.716073 111.29325
3359500000 -8.021945 -15.668536 -1.3341051 120.80663 -1.3298373 120.81363 -7.8366194 76.211411
3694450000 -8.7554836 -118.6457 -1.2662054 58.115444 -1.2628908 58.123024 -8.4740019 55.062393
4029400000 -7.1298513 136.11078 -1.8597006 -5.3683581 -1.8574783 -5.3649206 -6.3771744 31.775639
4364350000 -6.0561566 52.999908 -3.098331 -63.611214 -3.1048982 -63.63319 -4.458952 -8.1791735
4699300000 -4.8194404 -8.6247129 -3.3125963 -117.92887 -3.2999172 -117.96033 -4.1688237 -49.65514
5034250000 -4.0504589 -75.856468 -3.700032 -172.55579 -3.6913168 -172.56204 -4.1422377 -86.713158
5369200000 -4.683496 -144.33934 -3.5731907 132.14055 -3.5609443 132.17606 -3.8979597 -128.12268
5704150000 -5.895287 146.92342 -3.1362069 77.875 -3.1195247 77.894295 -4.5781345 -170.93005
6039100000 -6.8681087 62.987869 -2.2659867 17.637548 -2.2608628 17.647095 -6.1038122 153.53612
6374050000 -8.1703215 -36.809551 -1.978368 -45.147827 -1.9727002 -45.127449 -7.0543194 127.02379
6709000000 -7.7112479 -137.9408 -2.1589634 -107.13198 -2.1537006 -107.11451 -6.5203476 101.80498
7043950000 -6.3404584 133.58563 -2.521137 -167.24332 -2.5156353 -167.22566 -5.4596457 69.514481
7378900000 -5.5692763 54.835896 -2.7231815 135.02347 -2.7194624 135.03539 -5.005445 32.766655
7713850000 -5.6524916 -22.474342 -2.5825276 77.361771 -2.57691 77.381676 -5.3082194 -3.792918
8048800000 -6.4916019 -106.47636 -2.2622943 17.47094 -2.2578957 17.485519 -6.1521401 -36.735092
8383750000 -7.2946949 158.60039 -2.1474507 -44.539253 -2.1420004 -44.523743 -6.64923 -64.493149
8718700000 -7.0074983 61.72966 -2.4519091 -106.72462 -2.4451075 -106.68761 -6.1032434 -94.268433
9053650000 -6.2535744 -26.014057 -3.033581 -167.16125 -3.0284152 -167.13435 -5.3564086 -132.01907
9388600000 -5.7594995 -106.50201 -3.7324958 134.63586 -3.7126944 134.66925 -5.2268562 -177.40437
9723550000 -6.0205822 175.33403 -4.3176513 81.808273 -4.3002143 81.960854 -7.2469449 130.87068
10058500000 -7.2218194 102.08614 -3.2137256 28.975155 -3.2174284 28.99959 -11.946615 110.92247
10393450000 -8.3984299 26.015171 -2.3310919 -33.340584 -2.3216603 -33.376198 -10.82091 93.945717
10728400000 -10.071699 -64.265732 -2.0407965 -96.844734 -2.0371084 -96.810051 -10.288047 67.264931
11063350000 -10.649324 -167.42494 -2.1121311 -159.36638 -2.101088 -159.39526 -9.2118397 40.280571
11398300000 -9.6916714 100.87534 -2.2667522 139.409 -2.2586899 139.51566 -7.924799 5.5975838
11733250000 -9.6942778 20.251287 -2.2491312 78.881088 -2.248596 78.868858 -7.955327 -32.803642
12068200000 -13.053746 -69.589989 -2.1773169 16.225254 -2.1611788 16.289593 -9.088459 -63.641632
12403150000 -16.019402 148.6152 -2.4536095 -47.114956 -2.45049 -47.051636 -8.9898996 -83.837669
12738100000 -9.0933208 44.091457 -3.0357151 -110.31303 -3.0220385 -110.28848 -6.7795396 -110.13302
13073050000 -5.5140252 -26.777092 -3.9958766 -170.31268 -3.9907675 -170.23856 -4.74119 -150.53391
13408000000 -4.0411868 -88.234787 -4.7307358 133.73517 -4.7233138 133.77116 -3.7484679 165.04507
13742950000 -3.6741071 -146.66479 -4.8719678 79.562202 -4.8640442 79.606934 -3.4766409 120.2795
14077900000 -4.3062487 152.76808 -4.3454995 23.964621 -4.3366704 23.986118 -3.8848639 76.132362
14412850000 -6.9834752 82.324066 -3.4761081 -37.031761 -3.4666893 -36.969254 -5.2546706 35.930588
14747800000 -14.643847 -27.514658 -3.3201363 -104.10246 -3.3010564 -104.10257 -6.3646274 9.6553993
15082750000 -11.484081 177.93301 -4.5348854 -167.63792 -4.5066895 -167.47453 -5.0102229 -21.093376
15417700000 -8.1880865 110.3682 -5.3536096 139.22392 -5.3607178 139.37685 -4.552269 -63.23262
15752650000 -6.4273925 61.683678 -4.8562961 84.84481 -4.8655915 84.770287 -5.1676016 -103.63525
16087600000 -5.8574057 5.8975925 -4.200851 26.531408 -4.1803818 26.541901 -6.4078465 -141.21225
16422550000 -7.7069607 -60.813667 -3.4134531 -34.558857 -3.4061394 -34.424805 -8.6057901 -174.74719
16757500000 -13.857917 -168.86488 -2.7289016 -100.2272 -2.7354491 -100.21991 -10.939123 175.56976
17092450000 -11.021688 37.680733 -3.1427794 -168.29759 -3.1324627 -168.28542 -7.918478 161.9328
17427400000 -7.8877387 -45.760689 -4.2348356 130.08621 -4.228642 130.11159 -6.0679107 122.91731
17762350000 -7.5835328 -118.01354 -4.7568002 74.776474 -4.7456498 74.825966 -7.2411318 84.62735
18097300000 -9.6041908 163.72241 -4.4945893 18.352543 -4.4941311 18.503902 -7.3170977 65.10099
18432250000 -11.612695 65.408493 -3.6505539 -42.108818 -3.6514819 -42.157883 -7.5946202 36.265942
18767200000 -11.734286 -48.976166 -3.3615201 -106.18631 -3.3496461 -106.04831 -7.5374713 10.186822
19102150000 -10.548135 -149.52075 -3.3304236 -169.46518 -3.3347077 -169.4801 -7.3895664 -19.01671
19437100000 -10.37054 122.18571 -3.2913277 127.43663 -3.2726991 127.4405 -7.5315785 -49.3699
19772050000 -11.656254 31.089287 -3.2425189 62.939346 -3.2397513 63.061203 -7.8936863 -80.12043
20107000000 -13.708252 -83.608376 -3.4781632 -3.4401803 -3.4717326 -3.455395 -7.8454342 -102.75357
20441950000 -10.192505 155.06969 -4.3880668 -70.123642 -4.3748617 -70.033836 -5.6669836 -130.74815
20776900000 -6.2302046 69.871567 -5.8838964 -132.77618 -5.8842764 -132.73743 -3.7506678 -169.97134
21111850000 -4.1906304 2.3053443 -7.4473467 170.41533 -7.43223 170.44661 -2.7212212 148.87262
21446800000 -3.3259165 -57.166958 -8.5224705 118.39816 -8.5137691 118.46098 -2.2577124 109.34038
21781750000 -3.0176945 -114.02764 -8.7919722 69.198349 -8.7851048 69.23867 -2.1976087 71.126564
22116700000 -3.2710621 -174.08719 -8.0649109 17.90662 -8.0512333 17.963795 -2.6736813 34.737427
22451650000 -4.5762568 120.44842 -7.0310907 -37.682632 -7.028832 -37.589439 -3.4554963 0.79580778
22786600000 -7.1494246 45.348682 -5.9835882 -96.43779 -5.9798121 -96.387939 -4.4408398 -32.420574
23121550000 -10.90884 -48.725956 -4.9806414 -157.91092 -4.9748282 -157.88179 -5.6070714 -65.957123
23456500000 -12.523677 -161.364 -4.1828489 138.22479 -4.1761336 138.27028 -7.0861416 -102.625
23791450000 -12.120606 105.96395 -3.709986 73.483498 -3.7066844 73.546593 -9.396678 -143.32787
24126400000 -13.77462 38.088402 -3.3655066 7.6556969 -3.3595898 7.678175 -13.308856 164.68823
24461350000 -12.860896 8.7679434 -4.2823582 -62.913651 -4.2712169 -62.846634 -22.65485 -1.5674844
24796300000 -18.512123 -28.948023 -4.001174 -114.71526 -3.9982746 -114.64117 -17.188608 -128.57236
25131250000 -11.303483 -49.734318 -4.0448699 178.62047 -4.0390925 178.63809 -11.116616 -166.39072
25466200000 -8.5794735 -104.77307 -4.6989284 116.22855 -4.6862626 116.29388 -7.6258659 142.53815
25801150000 -7.5851555 -155.63141 -5.2254925 57.255798 -5.2226505 57.302269 -6.1251068 93.309502
26136100000 -7.501956 146.05441 -5.4025459 0.11557909 -5.3936801 0.13949743 -5.8688674 49.933174
26471050000 -9.2756691 77.211929 -4.9528503 -56.462811 -4.9429121 -56.380745 -6.0257401 11.664783
26806000000 -12.866693 -27.921047 -4.0876837 -119.18011 -4.0833945 -119.13111 -7.0750742 -21.205347
27140950000 -10.810316 -149.82903 -4.0937338 174.93433 -4.0845504 174.97392 -7.1914301 -46.15657
27475900000 -8.5928421 129.20055 -4.5182042 113.0399 -4.5089498 113.11716 -6.8905826 -78.90789
27810850000 -9.3191442 56.989693 -4.4601345 53.063179 -4.4593267 53.103867 -7.6930027 -112.96613
28145800000 -13.87312 -45.620041 -4.1310329 -10.564743 -4.1212344 -10.535982 -8.6972418 -137.53133
28480750000 -10.279935 165.86644 -4.5153599 -77.851608 -4.5095711 -77.75769 -7.2227726 -160.08101
28815700000 -5.5963774 83.238968 -5.7718172 -141.02232 -5.7660565 -140.963 -5.2298293 160.75783
29150650000 -4.0171371 20.706018 -6.8743773 162.01683 -6.8697462 162.0778 -4.2630749 116.31755
29485600000 -3.657542 -35.874168 -7.4001026 107.43103 -7.3942804 107.4781 -3.8895915 71.763603
29820550000 -3.9392898 -91.056076 -7.3837748 53.156609 -7.3781805 53.213776 -3.8934667 26.931324
30155500000 -4.831418 -147.52785 -6.8529134 -2.9092064 -6.8457522 -2.8790207 -4.4413519 -19.058125
30490450000 -6.7247419 154.21033 -6.1580105 -61.998726 -6.146668 -61.944427 -5.9251289 -64.744034
30825400000 -10.813927 92.630623 -5.5595946 -123.7952 -5.5531745 -123.69832 -8.2118645 -106.79542
31160350000 -19.855921 9.911828 -5.2427382 173.29884 -5.2416744 173.41168 -10.204022 -144.78207
31495300000 -16.403255 -145.49911 -5.0502253 110.27609 -5.045126 110.36497 -11.056818 172.73138
31830250000 -10.70201 147.84767 -5.0844417 46.990902 -5.0772557 47.090561 -11.340144 117.21771
32165200000 -9.3190374 101.92939 -5.1942821 -15.636863 -5.1938467 -15.533606 -12.038899 46.650536
32500150000 -8.8381376 68.242203 -5.3436246 -78.912735 -5.3383822 -78.836777 -13.048089 -39.255947
32835100000 -7.6946173 31.026913 -5.8901353 -141.69426 -5.88901 -141.60435 -12.049945 -128.4175
33170050000 -7.5500517 -17.850437 -6.2334175 159.41103 -6.2228346 159.45987 -8.6009703 158.20773
33505000000 -8.3660994 -79.049873 -6.2429843 98.560219 -6.2392483 98.658134 -6.4351821 96.850311
33839950000 -9.1637115 -159.39406 -6.5095372 37.168911 -6.5009766 37.229652 -5.3403664 48.770504
34174900000 -8.2226486 115.71574 -6.852138 -22.802666 -6.8484068 -22.717119 -4.6582084 7.0197835
34509850000 -6.7184072 43.377724 -7.0712824 -80.839233 -7.06744 -80.769386 -4.3303165 -33.298801
34844800000 -6.2957592 -21.479128 -6.8106751 -138.04793 -6.8078241 -138.00688 -4.6963205 -73.539032
35179750000 -7.5497632 -85.706512 -6.1197944 161.33881 -6.1045871 161.44522 -6.3106766 -113.6281
35514700000 -11.041092 -146.8118 -6.0584073 96.93177 -6.0601258 97.109779 -8.262536 -141.55641
35849650000 -16.127235 150.38687 -5.696496 36.534042 -5.6994596 36.620979 -9.6325922 -174.86984
36184600000 -29.178551 -153.36067 -5.2224317 -29.241615 -5.2216444 -29.13835 -10.321236 161.58266
36519550000 -13.242974 169.16277 -5.4438529 -96.176788 -5.4386039 -96.060135 -8.7031384 129.48288
36854500000 -8.7525969 105.64581 -6.160212 -161.10786 -6.1617813 -161.02348 -6.9134636 86.62896
37189450000 -7.412766 47.001881 -7.1633768 138.24458 -7.1488748 138.27585 -6.0308514 40.339729
37524400000 -7.8444076 -6.6576219 -7.5500383 81.99585 -7.5409417 82.148933 -5.8205285 -1.8893906
37859350000 -9.4954596 -64.392097 -7.206121 24.768431 -7.2017484 24.90469 -6.0198784 -45.418106
38194300000 -13.241183 -131.57802 -6.250071 -37.533581 -6.2445841 -37.480835 -8.3421745 -82.537079
38529250000 -16.779953 111.89496 -6.3281765 -103.40361 -6.3240628 -103.32893 -10.317443 -107.57708
38864200000 -13.52873 11.500216 -6.7562222 -165.17407 -6.7532554 -165.14046 -10.883525 -128.41875
39199150000 -12.412421 -46.707718 -6.4595284 135.39754 -6.447597 135.47437 -11.989177 -174.186
39534100000 -12.13647 -89.535347 -5.7688718 71.920937 -5.7624884 72.086769 -15.751175 102.5666
39869050000 -11.232874 -132.0489 -5.3127913 2.1942456 -5.3182464 2.2658715 -13.560562 -25.908993
40204000000 -10.877966 165.41359 -6.1767602 -68.1147 -6.1691341 -68.047874 -8.4185629 -101.26825
40538950000 -13.221745 84.605179 -7.8253279 -131.58862 -7.8198786 -131.45668 -6.2133021 -162.51239
40873900000 -14.328421 7.7654462 -8.3577576 174.04167 -8.3655844 174.15547 -6.2042093 140.49574
41208850000 -11.048034 -72.876183 -8.5632877 109.16805 -8.5575848 109.19921 -5.8359547 92.147789
41543800000 -9.5880795 -139.49632 -9.8216686 51.79351 -9.8158741 51.835995 -5.1888952 37.569344
41878750000 -7.7854657 170.50687 -9.8463793 -3.8377659 -9.8496943 -3.7987046 -5.0431414 -11.401679
42213700000 -6.2998133 117.09002 -10.261523 -61.765854 -10.256442 -61.762615 -4.4795656 -55.85091
42548650000 -5.7531471 63.605644 -10.495772 -113.98601 -10.484815 -113.90437 -4.2797375 -99.022865
42883600000 -5.9634275 9.1807661 -9.4332428 -165.54863 -9.4450541 -165.4232 -4.9701562 -142.3176
43218550000 -7.2651925 -47.645489 -7.5544357 135.94008 -7.5516787 135.96248 -7.6072359 176.73415
43553500000 -11.730414 -98.5299 -6.0696039 68.409477 -6.0632682 68.522316 -13.191689 164.39304
43888450000 -15.443986 -99.813766 -5.9000478 -0.64450932 -5.8984065 -0.564053 -10.286578 171.11967
44223400000 -11.94615 -123.32809 -6.1275535 -63.564697 -6.1266146 -63.505302 -8.1235237 132.06169
44558350000 -10.534147 -168.75125 -5.9177866 -125.40001 -5.9126291 -125.32173 -8.7096291 85.478462
44893300000 -11.576139 139.92204 -5.4994211 172.13693 -5.4974451 172.26427 -11.294589 36.232063
45228250000 -17.527025 93.212006 -5.0428872 109.15523 -5.0475726 109.2438 -17.640127 2.9409997
45563200000 -21.781792 148.37866 -4.9155216 43.793957 -4.9110756 43.853165 -17.990803 9.5165253
45898150000 -13.749685 118.86335 -4.9430285 -20.393332 -4.9399581 -20.302046 -13.146144 -34.498672
46233100000 -11.216089 70.344696 -4.8178873 -83.109367 -4.8135152 -83.001839 -11.273521 -86.076004
46568050000 -11.246506 14.020207 -4.613028 -146.83334 -4.6120481 -146.73494 -11.596786 -131.48146
46903000000 -13.978783 -44.853504 -4.4661517 147.74918 -4.4654207 147.84027 -13.427369 -158.86005
47237950000 -20.588404 -78.490898 -4.5502648 82.477669 -4.5499692 82.587433 -14.460453 -172.60323
47572900000 -16.996679 -76.297531 -4.7116146 16.643053 -4.7140369 16.741526 -15.489067 -178.19031
47907850000 -12.534235 -141.02238 -5.2304564 -50.55777 -5.2309589 -50.49012 -12.663359 -167.44528
48242800000 -12.545639 140.04251 -6.4127469 -115.57895 -6.4108672 -115.4761 -7.6508174 166.18045
48577750000 -14.442239 52.839039 -7.6712623 -175.76605 -7.6669044 -175.67569 -5.7185559 129.21901
48912700000 -12.754029 -47.129108 -8.5009995 127.9062 -8.5066481 127.9921 -4.9533439 91.957626
49247650000 -8.7158318 -121.0238 -8.8958044 70.089127 -8.893136 70.130356 -5.0923457 53.856232
49582600000 -6.0772591 -174.47943 -9.2843323 14.350677 -9.27847 14.475459 -5.515543 12.910703
49917550000 -4.7168384 140.17632 -9.3974762 -41.517918 -9.3997211 -41.457352 -6.1891122 -39.463318
50252500000 -4.2417569 103.26527 -8.927165 -96.879845 -8.920002 -96.795563 -8.3700094 -103.78082
50587450000 -4.2498722 68.247414 -8.2964649 -155.57706 -8.3024206 -155.47252 -11.835961 -176.61751
50922400000 -4.5573249 36.165318 -7.849442 144.39212 -7.845695 144.49103 -16.220011 94.255653
51257350000 -5.3570852 3.4293914 -6.9948659 82.912682 -6.9879589 82.999588 -15.274679 -43.809124
51592300000 -6.1693101 -25.335983 -6.8020806 17.015743 -6.8019395 17.128765 -9.6872025 -146.99377
51927250000 -6.8532906 -60.833134 -6.9733815 -44.84161 -6.9656658 -44.725601 -7.9471431 141.89833
52262200000 -9.3506269 -101.87705 -6.6213155 -105.88646 -6.6217475 -105.71947 -9.1405735 82.434525
52597150000 -15.718513 -124.31016 -6.0564685 -172.06247 -6.0559807 -171.97191 -16.441307 35.225384
52932100000 -12.193925 -95.877182 -6.8366785 118.76676 -6.8317194 118.8588 -14.687937 102.34187
53267050000 -7.1079097 -141.5218 -7.574285 58.847641 -7.5702033 58.935932 -8.5295916 57.14542
53602000000 -5.6567307 165.45531 -8.2722263 -1.1615725 -8.2730932 -1.040367 -6.8463497 2.5669329
53936950000 -6.651711 118.54807 -8.4551935 -57.686699 -8.4586287 -57.653389 -7.8989825 -57.406921
54271900000 -9.1446714 87.76384 -7.3560309 -116.65017 -7.3500128 -116.60887 -11.775692 -120.9506
54606850000 -11.142745 62.127628 -7.2689943 175.35405 -7.2639813 175.45345 -18.10441 145.49635
54941800000 -13.794372 47.883076 -7.5730491 111.77499 -7.5679722 111.87508 -18.443178 24.726524
55276750000 -14.944283 46.384884 -7.1616488 47.86002 -7.1609378 48.005726 -17.535963 -30.83684
55611700000 -14.306735 68.463234 -7.2222428 -23.776585 -7.2300625 -23.652779 -12.611057 -53.311981
55946650000 -7.8077579 51.206306 -8.893095 -93.904205 -8.9007063 -93.840332 -7.9195871 -107.16286
56281600000 -4.9624896 15.248776 -11.032588 -153.8313 -11.029505 -153.70937 -5.9745531 -166.30769
56616550000 -3.8894894 -20.076927 -12.113197 154.20883 -12.118071 154.36887 -5.409164 132.97015
56951500000 -3.5977657 -54.027802 -12.080914 99.548492 -12.083265 99.638107 -6.0991955 66.339066
57286450000 -3.7362089 -86.779167 -11.915953 42.761887 -11.912906 42.859043 -7.7002974 -9.5150566
57621400000 -4.0827832 -119.39204 -11.422267 -16.077097 -11.423477 -15.899851 -8.9124317 -97.823441
57956350000 -4.5686493 -152.73291 -10.853058 -78.62075 -10.865035 -78.539787 -9.6418285 170.15689
58291300000 -5.1484928 173.97382 -10.343815 -142.24055 -10.341556 -142.16855 -11.206465 74.149216
58626250000 -5.7538991 142.36232 -10.121623 150.33284 -10.124524 150.45598 -12.073467 -41.671524
58961200000 -5.9357753 110.8925 -10.637549 82.993484 -10.644881 83.030266 -8.9587917 -140.42354
59296150000 -6.1724486 76.147705 -11.268054 21.030972 -11.272298 21.112034 -6.993145 151.27045
59631100000 -7.3380294 40.955856 -11.162439 -38.764862 -11.168581 -38.648884 -6.5528865 94.198196
59966050000 -10.109731 11.426786 -10.232462 -102.14469 -10.23436 -102.10308 -8.1690273 35.609531
60301000000 -12.599106 9.6696711 -9.2508793 -174.45195 -9.2486343 -174.3013 -14.102403 -31.45727
60635950000 -9.9520102 -6.0609689 -9.307663 109.92391 -9.322588 109.96045 -32.080406 138.13797
60970900000 -10.0649 -45.194466 -10.01846 34.506809 -10.003977 34.528946 -16.593235 16.745735
61305850000 -16.451262 -91.802063 -10.978761 -39.735161 -10.967937 -39.547321 -13.111352 -81.309097
61640800000 -17.042322 30.438509 -12.05125 -118.25546 -12.07467 -118.13482 -8.5700226 -159.8905
61975750000 -8.0864363 -18.229258 -14.827465 163.37134 -14.813283 163.34076 -5.5199661 134.58345
62310700000 -5.7167301 -60.65284 -18.615026 93.782089 -18.606398 94.10685 -4.6865611 81.867836
62645650000 -4.82655 -98.234421 -22.375086 35.596981 -22.425947 35.781956 -5.1711164 34.755341
62980600000 -5.0255241 -132.39659 -23.620478 -10.68595 -23.625032 -10.765166 -6.9594049 -22.47563
63315550000 -5.6560273 -164.79869 -22.869049 -86.162834 -22.855967 -85.954185 -10.128539 -119.37861
63650500000 -6.6146021 161.61824 -26.845074 -178.18674 -26.874214 -178.35562 -7.7862182 132.36832
63985450000 -8.1680613 125.28456 -34.857372 79.072533 -34.676102 79.661118 -5.111722 74.542717
64320400000 -10.326324 87.261055 -32.785847 -85.643974 -32.776924 -85.529541 -3.8234596 34.880051
64655350000 -11.341265 46.961716 -27.561516 -178.70314 -27.55232 -178.8101 -3.6028316 1.6804572
64990300000 -9.9877148 -11.330487 -22.371904 108.28992 -22.333084 108.60088 -4.1229067 -27.633348
65325250000 -8.7586842 -80.176064 -19.127775 23.337223 -19.124897 23.417986 -4.843009 -50.146381
65660200000 -9.0446186 -141.44014 -17.788277 -55.769405 -17.768288 -55.559658 -5.1104693 -75.82869
65995150000 -10.321639 166.72832 -17.025871 -135.17744 -17.041376 -134.98979 -5.7072601 -104.89203
66330100000 -12.892339 123.05276 -17.22607 146.28755 -17.227362 146.34085 -6.3330131 -144.26534
66665050000 -17.228138 84.262627 -18.969633 70.295959 -18.961704 70.506134 -7.7289166 156.37389
67000000000 -23.282042 11.991591 -21.808907 15.453401 -21.797192 15.710358 -9.121624 80.739868
