!Keysight Technologies,N5247B,US55470547,A.17.35.10
!Date: Thursday, May 02, 2024 13:56:41
!Correction: S11(C  2-Port  ) 
!S21(C  2-Port  ) 
!S12(C  2-Port  ) 
!S22(C  2-Port  ) 
!S2P File: Measurements: S11, S21, S12, S22:
# Hz S  dB   R 50
10000000 -18.230082 80.037666 -0.083341829 -8.8227329 -0.07983318 -8.8116808 -18.168547 80.079056
344950000 -22.731909 1.0999291 -0.18941717 -64.092537 -0.18653971 -64.092682 -23.619081 28.174528
679900000 -20.315874 -76.872475 -0.25190973 -125.5508 -0.24833408 -125.5582 -20.615074 3.1592493
1014850000 -19.542351 176.81894 -0.32641646 172.73344 -0.32184666 172.728 -17.804424 -12.959504
1349800000 -14.596409 69.863327 -0.49395698 110.69244 -0.48935184 110.69052 -13.554807 -36.555626
1684750000 -10.211049 -13.21365 -0.84335309 49.202927 -0.83878309 49.204567 -9.9168921 -74.34655
2019700000 -7.7111754 -86.041412 -1.2553771 -11.949459 -1.2501291 -11.952658 -7.5009122 -118.72804
2354650000 -6.6325369 -156.25754 -1.6344264 -70.859917 -1.6294973 -70.864639 -6.323719 -165.1357
2689600000 -6.2508388 131.75208 -1.836333 -129.2618 -1.8322197 -129.2683 -5.8773756 149.74765
3024550000 -6.7655864 55.5844 -1.6884815 172.12141 -1.6835867 172.1113 -6.4679513 107.52644
3359500000 -8.1027641 -34.588284 -1.39843 110.50384 -1.3939549 110.50093 -8.0811434 74.456787
3694450000 -8.3242664 -144.8989 -1.4801499 46.103069 -1.4785923 46.1026 -8.2065868 58.796967
4029400000 -6.2847242 113.95115 -2.2663248 -17.666521 -2.2615745 -17.663219 -5.574719 30.507051
4364350000 -5.350028 36.691151 -3.3739963 -75.339256 -3.3671458 -75.307777 -4.0684834 -11.74813
4699300000 -4.5302968 -27.641712 -3.5126617 -131.99881 -3.5086696 -131.92612 -3.9673381 -53.147526
5034250000 -4.3031025 -92.011932 -4.0127892 173.52336 -4.0028481 173.5591 -3.730072 -91.14917
5369200000 -5.4832134 -163.79861 -3.5652068 117.04417 -3.5622725 117.04966 -4.1070161 -133.47118
5704150000 -6.9550028 122.38499 -2.9479742 60.144455 -2.9426618 60.157337 -5.1134958 -174.44591
6039100000 -8.6858568 20.663904 -2.2066567 -3.6427927 -2.199739 -3.6601622 -6.8148241 153.48027
6374050000 -9.0839758 -94.382919 -2.2696919 -68.264015 -2.2616477 -68.249741 -7.1339574 129.87007
6709000000 -7.4416575 168.6268 -2.6012795 -130.1257 -2.595494 -130.10309 -6.2177649 101.51534
7043950000 -6.2120247 85.951073 -2.8651781 169.32841 -2.861716 169.3096 -5.3735337 66.51754
7378900000 -6.1374545 6.5999489 -2.8747606 109.86776 -2.8670852 109.82908 -5.3722253 29.557781
7713850000 -6.9797177 -79.104462 -2.6309812 48.656433 -2.6200819 48.654209 -6.082109 -3.9197042
8048800000 -7.903461 -177.7272 -2.5723193 -15.280595 -2.5666215 -15.265123 -6.4874902 -31.554138
8383750000 -7.4709468 81.343422 -2.9740944 -79.167923 -2.9728496 -79.182564 -5.8153105 -61.339756
8718700000 -6.5047112 -7.8242207 -3.6145701 -140.88814 -3.6118007 -140.90849 -5.0925879 -99.292542
9053650000 -6.012095 -88.519714 -4.2082019 159.14038 -4.2097554 159.09268 -5.0362058 -143.91472
9388600000 -6.0617318 -167.63556 -4.8034444 100.56248 -4.7839441 100.47018 -6.4903626 163.50742
9723550000 -6.9694376 110.36812 -4.9118919 46.585606 -4.8703709 46.566002 -14.800965 117.71075
10058500000 -8.9219704 24.699654 -3.8696592 -14.32215 -3.8584998 -14.290907 -11.995744 155.64568
10393450000 -11.607253 -73.024803 -3.878706 -79.534904 -3.8770261 -79.642479 -8.33076 111.14707
10728400000 -13.66482 -170.81619 -3.9361501 -139.13042 -3.9148026 -139.22678 -8.5775299 67.280563
11063350000 -13.141932 99.935043 -3.4765296 156.82153 -3.4625974 156.84239 -8.7779112 38.922199
11398300000 -15.244981 5.4893055 -3.4455037 90.49012 -3.4428959 90.518372 -8.5330524 10.016443
11733250000 -18.140474 -150.58862 -4.0338593 22.723095 -4.0307922 22.738377 -7.4097123 -16.048557
12068200000 -11.580701 92.917763 -5.4148993 -39.199543 -5.4116607 -39.234631 -5.8425279 -53.274479
12403150000 -8.5948248 30.441299 -5.8015919 -96.696617 -5.7916842 -96.70414 -5.4234633 -90.732536
12738100000 -6.5417099 -26.141644 -6.0328865 -157.21739 -6.0334625 -157.21407 -4.7414656 -129.26666
13073050000 -6.1894865 -83.568207 -6.1885552 143.1385 -6.1813059 143.10313 -4.5622249 -170.94193
13408000000 -7.7817388 -141.88672 -6.0042152 82.195572 -5.9930363 82.190331 -5.0536251 148.37102
13742950000 -13.253487 161.3143 -5.8146615 17.96814 -5.8074064 17.95059 -5.917172 112.93667
14077900000 -23.753511 -135.71603 -6.1501198 -48.244064 -6.1384616 -48.248325 -5.9394522 83.239891
14412850000 -11.353438 -163.04576 -7.0321875 -112.32574 -7.0255632 -112.32354 -4.9520402 48.516747
14747800000 -8.3034449 145.06793 -7.9114056 -172.42589 -7.906033 -172.48672 -4.3468571 7.4089742
15082750000 -7.9888263 96.044624 -8.3402891 129.64461 -8.3305235 129.56418 -4.7441645 -35.936161
15417700000 -9.4674768 53.08297 -8.2029533 69.88546 -8.1843557 69.839302 -6.4694648 -74.894867
15752650000 -12.44436 19.580582 -8.2582016 6.2556877 -8.2404175 6.3104572 -8.0610304 -99.635422
16087600000 -16.100334 7.7060089 -8.7241726 -55.878349 -8.7211533 -55.857555 -7.6087976 -124.65106
16422550000 -14.695463 10.505201 -9.0271778 -117.45982 -9.0205593 -117.5229 -7.2611103 -155.9536
16757500000 -11.626541 -23.722712 -9.4394865 -178.46513 -9.4257116 -178.47858 -7.0389981 172.69676
17092450000 -11.680596 -74.966293 -9.5746832 121.21496 -9.565794 121.22739 -7.3020582 137.75566
17427400000 -15.292037 -134.76575 -9.5666132 59.00095 -9.5567074 59.012173 -8.9821367 108.84453
17762350000 -25.697317 139.01555 -9.7712326 -5.0818024 -9.7650433 -5.097857 -9.6152096 96.400291
18097300000 -24.070026 -45.350796 -10.646511 -67.214676 -10.637362 -67.241058 -8.5279016 71.838531
18432250000 -22.267792 -102.12542 -10.80105 -128.45125 -10.789784 -128.47366 -7.8644614 49.06485
18767200000 -23.97286 -133.91364 -11.276202 169.27327 -11.26996 169.26151 -6.8732538 20.262142
19102150000 -22.346556 -142.41257 -11.76141 107.26321 -11.752004 107.27445 -6.4935417 -10.024226
19437100000 -17.526587 -175.89383 -12.401715 44.950283 -12.401656 44.972706 -5.8817024 -40.543335
19772050000 -14.105805 134.7907 -13.306866 -16.618601 -13.302493 -16.672888 -5.079143 -75.039093
20107000000 -12.285468 84.578857 -14.375155 -75.323395 -14.364287 -75.36319 -4.4902568 -112.54713
20441950000 -11.210522 42.55545 -14.913098 -132.55229 -14.907926 -132.55647 -4.1816401 -150.61932
20776900000 -10.129879 -1.2067367 -15.68863 168.84328 -15.684042 168.81667 -3.9430149 172.04674
21111850000 -9.9155722 -44.149647 -16.534658 112.843 -16.52833 112.81165 -3.7835507 136.09142
21446800000 -10.265091 -86.575584 -17.129282 59.801205 -17.125673 59.769913 -3.6860697 101.57659
21781750000 -11.790628 -128.72737 -16.827898 6.1509624 -16.82225 6.1397748 -3.798502 67.979416
22116700000 -13.943308 -160.01718 -16.722727 -52.000111 -16.71484 -52.006569 -4.095355 36.341682
22451650000 -15.007611 175.02223 -16.795357 -108.86907 -16.784634 -108.83283 -4.4995041 4.8118358
22786600000 -14.93981 146.8672 -16.68923 -165.3087 -16.687014 -165.29692 -5.177876 -27.517126
23121550000 -14.707571 111.11407 -16.330196 136.99712 -16.328766 136.95094 -6.2996984 -61.080482
23456500000 -15.348548 73.001213 -16.071581 77.001511 -16.060785 76.964111 -8.0407763 -95.090691
23791450000 -16.357115 39.424976 -16.022572 16.511148 -16.009878 16.554325 -10.534217 -128.32048
24126400000 -16.786211 9.5368433 -16.11558 -44.620728 -16.110119 -44.576656 -14.089295 -159.39165
24461350000 -16.105341 -17.191481 -16.763075 -108.35952 -16.764475 -108.39526 -22.509447 -142.70367
24796300000 -14.6004 -53.585541 -17.146439 -156.99646 -17.140619 -157.04131 -13.259078 -173.55981
25131250000 -13.876222 -93.44278 -16.910711 142.35649 -16.906538 142.3315 -12.866724 155.65691
25466200000 -13.905046 -132.70515 -17.259583 83.540764 -17.255507 83.518898 -10.958953 127.26636
25801150000 -14.578002 -168.19585 -17.52607 27.673401 -17.517765 27.658127 -8.9738226 93.470322
26136100000 -15.952256 158.06633 -17.381891 -28.955359 -17.380352 -28.96142 -7.6198707 58.145851
26471050000 -18.726036 130.63387 -17.221836 -86.209488 -17.221401 -86.193977 -6.6838145 23.285427
26806000000 -23.069965 123.47254 -16.966417 -144.71274 -16.962763 -144.75336 -6.2709026 -10.982229
27140950000 -22.938576 147.36104 -16.886913 155.57123 -16.876574 155.53207 -6.1450238 -43.814644
27475900000 -18.645163 142.42076 -17.004591 95.800804 -16.995895 95.828392 -6.1810093 -76.679405
27810850000 -15.654746 122.11702 -17.278847 37.356243 -17.280348 37.344509 -6.2828603 -109.7363
28145800000 -13.385058 96.661148 -17.459385 -19.361177 -17.456354 -19.406273 -6.2261806 -143.54338
28480750000 -11.565879 67.065392 -17.3934 -75.996582 -17.385258 -76.018364 -6.110373 -179.6832
28815700000 -10.383245 32.930393 -17.212717 -133.5867 -17.201408 -133.58775 -6.0804548 142.15495
29150650000 -9.8702946 -4.5380969 -17.076677 167.81335 -17.071972 167.83775 -6.1254497 103.39523
29485600000 -9.8546352 -44.220528 -16.989538 109.83161 -16.98785 109.80964 -6.2400718 64.837357
29820550000 -10.315244 -84.954765 -16.73608 51.579353 -16.730352 51.555016 -6.5378265 26.244492
30155500000 -11.216839 -123.91837 -16.427317 -8.0191803 -16.417046 -8.0410891 -6.9892745 -12.328458
30490450000 -12.039333 -157.6329 -16.291441 -69.121681 -16.279648 -69.08802 -7.8612924 -51.378468
30825400000 -12.244241 173.12135 -16.507956 -129.40895 -16.508516 -129.33868 -9.0837536 -90.179504
31160350000 -12.136746 142.87401 -16.630413 172.96121 -16.638939 172.94618 -10.375903 -131.69063
31495300000 -12.587121 114.37366 -16.340605 114.91328 -16.340626 114.87865 -12.14522 -178.80136
31830250000 -13.225752 90.606171 -16.05607 54.335316 -16.049263 54.357349 -15.000876 130.34163
32165200000 -13.798351 70.899193 -16.093735 -7.0256529 -16.094744 -7.0248895 -19.548578 78.69825
32500150000 -13.997388 52.055565 -16.338654 -66.813324 -16.336926 -66.880211 -30.59981 19.7059
32835100000 -13.889398 27.574593 -16.469177 -123.84126 -16.464771 -123.8797 -24.877584 -175.79611
33170050000 -15.030115 -4.3862667 -15.640676 179.06583 -15.637545 178.99913 -15.501841 139.90887
33505000000 -18.305933 -41.675564 -14.799058 113.43829 -14.791513 113.42898 -10.478601 94.280083
33839950000 -26.424595 -107.98445 -15.081109 46.550571 -15.078379 46.558834 -7.9659886 50.379208
34174900000 -22.211456 97.480362 -15.744219 -16.442457 -15.744834 -16.456388 -6.763628 11.078133
34509850000 -15.60377 39.873371 -16.28874 -76.883659 -16.283848 -76.893875 -6.1781158 -24.966391
34844800000 -13.024752 -8.2952166 -16.666008 -136.42314 -16.659393 -136.40598 -5.9607215 -58.815784
35179750000 -12.166247 -55.167988 -16.967066 164.08943 -16.975134 164.06624 -5.8969345 -93.106697
35514700000 -12.079253 -105.82955 -17.133123 106.37125 -17.128784 106.31119 -5.9401517 -130.21606
35849650000 -12.700122 -158.89378 -16.717804 45.637772 -16.708538 45.632671 -6.5883026 -171.18486
36184600000 -13.274896 150.65152 -16.698465 -17.159101 -16.695456 -17.141956 -7.4447122 148.43181
36519550000 -13.859329 107.313 -16.701462 -79.521683 -16.705608 -79.52774 -8.1473885 109.35912
36854500000 -13.893126 73.098137 -16.862999 -143.79492 -16.86445 -143.82407 -8.1687641 73.041336
37189450000 -13.5379 41.527363 -17.651031 152.90305 -17.650822 152.82283 -7.5496831 35.969204
37524400000 -13.456781 8.5917206 -18.513264 94.259811 -18.50808 94.197166 -7.164434 -3.1074631
37859350000 -14.880629 -25.211575 -18.836771 39.917091 -18.813877 39.899761 -7.4732862 -40.323849
38194300000 -15.164408 -49.395344 -17.842852 -19.037436 -17.825241 -18.961512 -8.4089937 -74.066582
38529250000 -19.491795 -88.967422 -17.681496 -79.270294 -17.675106 -79.226318 -9.9705219 -104.46412
38864200000 -24.689796 -71.679375 -16.804224 -138.77139 -16.807795 -138.73424 -11.73678 -130.80243
39199150000 -22.893492 -65.390289 -15.875872 154.57555 -15.884449 154.58589 -14.658077 -166.44893
39534100000 -20.152115 -77.03582 -15.624701 86.697372 -15.62615 86.652779 -25.586771 173.08246
39869050000 -18.150902 -112.05487 -15.655512 19.576653 -15.65342 19.536823 -21.412605 -95.670372
40204000000 -19.758984 -156.23027 -15.955998 -47.019825 -15.960614 -47.008362 -13.928268 -123.41327
40538950000 -29.633379 162.82161 -16.545742 -111.56161 -16.556078 -111.56942 -10.508963 -167.46828
40873900000 -25.795973 -105.80318 -16.858128 -172.86865 -16.855236 -172.90887 -8.9971895 140.25854
41208850000 -20.302446 -134.36774 -16.835724 123.22736 -16.831459 123.20293 -8.7742805 87.862404
41543800000 -16.495466 -163.14291 -17.207523 59.546555 -17.214556 59.504589 -8.4520264 38.555016
41878750000 -12.825331 160.93398 -17.465023 -3.0477006 -17.466671 -3.0521154 -7.919569 -7.3164158
42213700000 -10.667233 114.55602 -17.957582 -66.198807 -17.972334 -66.286278 -7.211607 -46.026268
42548650000 -9.6979446 67.991737 -18.801226 -126.59961 -18.806711 -126.66445 -6.2359328 -82.768028
42883600000 -9.6497488 21.7838 -19.453979 178.0193 -19.451132 178.0271 -5.8284426 -120.02021
43218550000 -10.018843 -21.833292 -19.209415 124.87482 -19.207909 124.8821 -6.1275797 -154.86121
43553500000 -10.539552 -61.761414 -18.315546 68.086891 -18.320883 68.05835 -7.0413213 173.67209
43888450000 -10.706672 -100.99441 -17.615217 7.8081188 -17.60994 7.7745399 -7.9889898 146.01053
44223400000 -11.523591 -141.50099 -17.012846 -51.583435 -17.016798 -51.620712 -8.746933 116.39466
44558350000 -12.967887 -173.77322 -16.293222 -112.63832 -16.294226 -112.69768 -9.7706776 80.915779
44893300000 -13.852713 158.01828 -15.767981 -173.58688 -15.765049 -173.63873 -11.553321 40.382751
45228250000 -14.488278 130.2354 -14.991343 128.25412 -14.992319 128.2699 -14.408117 8.0129595
45563200000 -15.020823 106.10757 -13.866475 66.566002 -13.867919 66.554176 -15.426866 -28.537558
45898150000 -15.559206 80.313972 -12.780143 0.95002908 -12.782808 0.930296 -15.711539 -68.135376
46233100000 -15.965836 51.880905 -12.165459 -65.909637 -12.167346 -65.913391 -15.789349 -94.220383
46568050000 -16.593702 18.477144 -11.938326 -131.98576 -11.939814 -131.98497 -14.752455 -118.02291
46903000000 -17.614365 -23.726385 -11.759091 162.66188 -11.759317 162.65248 -13.759327 -140.22751
47237950000 -20.918421 -62.08849 -11.660201 97.606384 -11.660086 97.627075 -13.27723 -158.61629
47572900000 -21.887045 -81.975624 -11.686963 32.06958 -11.690319 32.084339 -12.074178 -172.61868
47907850000 -20.421555 -120.63408 -11.958145 -33.314346 -11.959666 -33.331581 -10.700018 168.7975
48242800000 -22.114902 -169.21289 -12.540673 -97.719582 -12.541677 -97.730072 -9.2476902 148.45448
48577750000 -32.820908 168.17851 -13.279628 -158.6098 -13.28126 -158.59412 -8.1472635 124.22371
48912700000 -21.233315 -101.03637 -13.481932 140.66859 -13.484498 140.66006 -7.2710528 94.48613
49247650000 -12.400222 -138.04524 -13.963897 77.770164 -13.961124 77.722176 -7.1320271 64.87114
49582600000 -8.3217974 177.22408 -14.80421 20.188843 -14.807588 20.189524 -6.9055862 29.020319
49917550000 -6.7202201 137.37607 -15.007361 -36.278759 -15.017726 -36.307636 -7.5627046 -14.486713
50252500000 -5.920835 106.73708 -14.822156 -93.713158 -14.827917 -93.714844 -8.9684572 -61.686943
50587450000 -5.1848297 74.992867 -14.948906 -153.29417 -14.958446 -153.33543 -10.534677 -111.06799
50922400000 -4.7865701 43.111862 -15.28382 151.597 -15.289356 151.62195 -12.096742 -159.19966
51257350000 -5.0582881 8.1735811 -14.270503 97.429504 -14.274651 97.415459 -14.207316 159.79802
51592300000 -6.1413798 -24.256134 -13.287088 34.169998 -13.28683 34.149426 -15.65833 142.55353
51927250000 -7.2478948 -55.50811 -13.097376 -29.857504 -13.102845 -29.809599 -14.498142 124.40288
52262200000 -8.6527824 -89.367775 -13.082669 -91.872749 -13.089437 -91.87001 -13.019814 96.76236
52597150000 -11.316796 -121.70454 -13.055686 -154.21454 -13.062593 -154.21423 -13.543742 65.857071
52932100000 -13.117652 -123.57102 -13.307598 146.18054 -13.304329 146.15717 -15.342385 48.014034
53267050000 -9.4800224 -151.14015 -12.600913 85.99012 -12.600863 86.025581 -14.877057 45.062637
53602000000 -7.9584756 167.07808 -12.578996 20.988033 -12.58649 20.997393 -12.326756 14.8054
53936950000 -8.5847473 126.44877 -12.893391 -40.065292 -12.893262 -40.001026 -12.99642 -25.836962
54271900000 -10.20431 101.84878 -12.274997 -100.91583 -12.274366 -100.85319 -15.536215 -58.789154
54606850000 -10.914218 82.478172 -12.411903 -167.28151 -12.417356 -167.2298 -19.858112 -78.897514
54941800000 -10.99191 62.780075 -12.697091 130.2213 -12.706576 130.26604 -22.113152 -74.120987
55276750000 -11.773015 46.704037 -12.669909 67.257423 -12.678688 67.275993 -20.486237 -76.872055
55611700000 -11.729664 46.514015 -12.750694 1.5029291 -12.75773 1.522254 -18.362659 -92.975548
55946650000 -8.6427193 34.78709 -13.720777 -63.815891 -13.724805 -63.788681 -14.733913 -112.64749
56281600000 -6.3445907 7.8855758 -14.487797 -122.78492 -14.491391 -122.74445 -11.106937 -151.79373
56616550000 -5.1373358 -21.894636 -14.689276 177.13298 -14.696656 177.10869 -8.7813396 155.90582
56951500000 -4.5741968 -53.88393 -15.030067 116.1366 -15.031051 116.13652 -8.7102585 96.806686
57286450000 -4.7065792 -85.273613 -15.294991 55.614174 -15.297215 55.630085 -10.15462 34.151371
57621400000 -4.9330792 -115.55508 -15.713016 -5.5114384 -15.710769 -5.4699965 -12.352427 -34.871429
57956350000 -5.1564617 -147.54376 -16.031012 -64.617592 -16.043045 -64.595856 -13.484183 -103.99207
58291300000 -5.4350924 179.89668 -15.762774 -123.67854 -15.763085 -123.64017 -14.348574 -163.31081
58626250000 -5.8010221 146.82587 -15.498699 172.35516 -15.49793 172.38474 -16.199926 154.84192
58961200000 -6.1801 114.71348 -16.011826 107.69978 -16.021069 107.70049 -17.789389 143.49969
59296150000 -6.4011397 82.911247 -16.494101 49.504093 -16.50112 49.500336 -14.640183 135.6889
59631100000 -6.9195495 50.116726 -16.004658 -8.8114395 -16.009645 -8.7879658 -11.603603 99.530769
59966050000 -8.4743109 18.009857 -14.94612 -72.164825 -14.957512 -72.187294 -11.471626 51.017693
60301000000 -11.106669 -1.8723433 -14.240221 -142.86528 -14.240498 -142.89096 -15.320443 -5.7896357
60635950000 -11.592268 -12.050933 -14.342934 145.78377 -14.339231 145.7337 -28.445192 -71.119873
60970900000 -11.956217 -30.414108 -14.766371 74.129547 -14.768507 74.16877 -28.711317 61.826588
61305850000 -13.645844 -50.278717 -15.384625 3.229897 -15.381477 3.2931397 -27.111118 -65.973724
61640800000 -16.35965 -34.921467 -16.133503 -70.143013 -16.13949 -70.104187 -16.648129 -161.59489
61975750000 -11.09932 -34.412323 -18.067698 -145.92334 -18.068579 -145.87517 -10.51652 141.89371
62310700000 -7.9631329 -63.893143 -21.022362 147.54988 -21.032597 147.61473 -8.2541351 94.878456
62645650000 -6.6849275 -95.6642 -23.342068 87.374672 -23.345634 87.493675 -8.1663675 52.375679
62980600000 -6.3263211 -125.92535 -25.563614 29.064224 -25.552921 29.090681 -11.161297 8.1123295
63315550000 -6.428256 -157.88211 -27.609476 -26.868361 -27.631042 -26.690865 -23.451284 -38.422527
63650500000 -7.2938676 169.1532 -29.917809 -78.663773 -29.924006 -78.39502 -15.246143 106.58974
63985450000 -8.713335 135.55463 -30.741383 -107.60482 -30.745337 -107.55446 -8.8116884 70.818764
64320400000 -10.324849 98.107117 -27.213623 -163.47159 -27.2269 -163.45096 -5.9318776 40.10899
64655350000 -11.98033 54.134514 -26.720362 129.19218 -26.738096 129.06393 -4.4846125 8.5873327
64990300000 -12.391343 -3.8464301 -26.887852 72.212013 -26.871162 72.229576 -4.224277 -21.182259
65325250000 -12.166126 -68.316444 -25.892189 15.946639 -25.902506 16.123362 -4.4907064 -48.580517
65660200000 -12.420619 -121.88911 -24.457247 -42.83913 -24.473131 -42.785038 -5.2622333 -76.100334
65995150000 -12.081882 -169.22739 -23.161264 -106.68799 -23.166262 -106.6172 -6.2288938 -104.49348
66330100000 -14.078433 147.0173 -21.592495 -172.8006 -21.595978 -172.70396 -7.6789565 -140.62033
66665050000 -18.26568 123.70019 -20.838053 112.79913 -20.833143 112.87675 -9.7674971 170.98347
67000000000 -21.432674 113.18214 -21.583908 41.814663 -21.588499 41.924393 -11.618256 102.74355
