!Keysight Technologies,N5247B,US55470547,A.17.35.10
!Date: Thursday, May 02, 2024 13:52:53
!Correction: S11(C  2-Port  ) 
!S21(C  2-Port  ) 
!S12(C  2-Port  ) 
!S22(C  2-Port  ) 
!S2P File: Measurements: S11, S21, S12, S22:
# Hz S  dB   R 50
10000000 -18.233902 80.017876 -0.0842259 -8.8320313 -0.081856988 -8.8249645 -18.180126 80.065544
344950000 -23.128439 0.19558805 -0.18912649 -64.294472 -0.18541142 -64.293144 -24.065506 27.682999
679900000 -20.920265 -78.965714 -0.25012922 -125.96648 -0.24581946 -125.97019 -21.222635 4.5771971
1014850000 -20.011122 170.74899 -0.32580537 172.08562 -0.32148597 172.08171 -18.149157 -9.175498
1349800000 -14.547248 64.34082 -0.50153863 109.81285 -0.49648863 109.81368 -13.555476 -33.322132
1684750000 -10.125882 -17.622988 -0.86426544 48.144455 -0.85945129 48.14677 -9.8489161 -72.222954
2019700000 -7.6843266 -90.19252 -1.2807565 -13.175517 -1.2747189 -13.177371 -7.437798 -117.08705
2354650000 -6.6660686 -160.69708 -1.6541986 -72.259956 -1.6482681 -72.263161 -6.3044181 -163.58594
2689600000 -6.3393245 126.57053 -1.843177 -130.95288 -1.8380061 -130.95105 -5.9004054 151.48941
3024550000 -6.9096203 48.649933 -1.6913807 169.9045 -1.6852448 169.90161 -6.5237999 110.19226
3359500000 -8.1441593 -44.544918 -1.4544706 107.51384 -1.4491524 107.52232 -7.9093556 79.431778
3694450000 -7.8078818 -154.75635 -1.7034305 42.713993 -1.6990957 42.721565 -7.2872066 61.332066
4029400000 -5.7586617 107.7182 -2.6489434 -20.50815 -2.6435027 -20.503033 -4.8879094 29.13434
4364350000 -5.0457225 32.975418 -3.7528727 -76.690086 -3.7511222 -76.730713 -3.7487798 -13.747359
4699300000 -4.285737 -30.813917 -3.8176336 -133.70074 -3.8025079 -133.68568 -3.7394121 -54.255611
5034250000 -4.0759101 -94.693497 -4.326581 172.40125 -4.3155565 172.44479 -3.4324169 -92.310173
5369200000 -5.2366099 -166.35005 -3.8627682 116.15104 -3.8587565 116.15318 -3.7891717 -134.61095
5704150000 -6.54423 119.61455 -3.1155732 59.402512 -3.1009552 59.397285 -4.8186727 -175.89359
6039100000 -8.1409464 19.36808 -2.369683 -4.6401844 -2.3658776 -4.6489496 -6.3831568 151.55402
6374050000 -8.5799608 -92.477219 -2.3989098 -69.263115 -2.3916168 -69.239639 -6.7483559 126.23985
6709000000 -7.178689 171.54572 -2.6993928 -131.18983 -2.6920869 -131.16563 -6.0303535 96.898933
7043950000 -6.0672002 88.889603 -2.930707 168.28786 -2.9236345 168.29523 -5.3924322 61.647022
7378900000 -6.0483246 10.066677 -2.8871293 108.81756 -2.8810785 108.82849 -5.5475712 24.430294
7713850000 -7.0111156 -74.360718 -2.5720468 47.624023 -2.567873 47.62059 -6.5052361 -9.5672531
8048800000 -8.3031387 -172.10883 -2.4208782 -16.476301 -2.4140761 -16.467661 -7.3160486 -36.522404
8383750000 -8.2200661 85.160873 -2.7143388 -80.908897 -2.7090716 -80.894493 -6.8526745 -64.3423
8718700000 -7.3401804 -6.2710266 -3.2695665 -143.57617 -3.2629225 -143.56049 -6.234159 -101.59368
9053650000 -6.8751755 -88.592079 -3.8539152 155.08858 -3.8562546 155.12184 -6.5707183 -147.17761
9388600000 -6.9517951 -169.85017 -4.6263866 95.412743 -4.6104631 95.339989 -9.7064905 158.79918
9723550000 -8.1416454 104.19852 -4.7107496 41.742908 -4.6751161 41.817341 -19.097494 -175.93179
10058500000 -10.656021 12.377322 -3.7921796 -19.917822 -3.7948916 -19.908104 -9.9559011 165.63885
10393450000 -13.426064 -94.10009 -3.9080601 -85.031578 -3.8871086 -85.025299 -7.4694276 120.2178
10728400000 -13.957636 162.87422 -3.9810812 -145.87701 -3.9786818 -145.8085 -7.2265806 78.613518
11063350000 -13.048071 73.096367 -3.8336375 150.60345 -3.8269029 150.60497 -6.950983 43.933346
11398300000 -14.510262 -26.680712 -3.8892992 85.194969 -3.8834023 85.245842 -6.8298702 11.080172
11733250000 -13.873976 -163.58502 -4.5567265 18.037846 -4.5489058 18.042282 -5.9705634 -18.394442
12068200000 -9.6421041 94.938896 -5.9809532 -43.208645 -5.9745412 -43.134407 -4.7204738 -56.273827
12403150000 -7.1553855 30.370546 -6.5272198 -100.11624 -6.5215335 -100.08508 -4.3239989 -95.198074
12738100000 -5.5853577 -28.023769 -6.8219371 -158.54706 -6.8145394 -158.50883 -3.9307106 -134.83812
13073050000 -5.3960657 -85.638794 -6.85044 143.60902 -6.8425961 143.61682 -3.883749 -176.47891
13408000000 -6.8178482 -144.82628 -6.4748001 83.933968 -6.4658132 83.969444 -4.3561101 142.05164
13742950000 -11.610528 153.34964 -6.0632324 20.296934 -6.0537715 20.31633 -5.3190355 104.11555
14077900000 -37.395355 -137.23409 -6.2114835 -45.916489 -6.2037444 -45.887245 -5.8805094 72.568802
14412850000 -12.361619 -156.75595 -6.9918165 -109.849 -6.9831433 -109.86479 -5.3917522 38.913132
14747800000 -8.810626 149.81516 -7.7174969 -169.59848 -7.7033372 -169.59691 -5.0666671 -0.89329517
15082750000 -8.0977192 102.28038 -7.89855 132.19498 -7.8867841 132.24937 -5.7216568 -43.374557
15417700000 -8.6465874 58.518234 -7.6412807 71.163765 -7.6333046 71.200371 -7.8760982 -81.505257
15752650000 -10.958327 17.128387 -7.7115908 7.1093235 -7.7041845 7.1244149 -9.9986935 -100.9896
16087600000 -16.04962 -9.1740808 -8.0739565 -55.091885 -8.0602455 -55.103069 -9.1001549 -121.97726
16422550000 -16.686701 11.193506 -8.293189 -117.81067 -8.2796726 -117.75455 -8.5595932 -152.0722
16757500000 -12.608708 -20.069658 -8.6975498 179.73558 -8.6873579 179.79286 -8.3483896 178.51656
17092450000 -12.803082 -69.898735 -9.0558205 118.21371 -9.0466509 118.26752 -8.519804 148.21089
17427400000 -17.29978 -121.35524 -9.2818222 56.167763 -9.2727766 56.195873 -9.1298828 125.78743
17762350000 -30.93602 -126.63921 -9.6243258 -7.5706921 -9.6123829 -7.5215464 -8.0373783 107.58767
18097300000 -21.360912 -100.50705 -10.724526 -68.803535 -10.714851 -68.736603 -6.9575667 77.345314
18432250000 -24.219522 -159.07558 -11.002906 -128.94695 -10.991211 -128.89903 -6.0935187 48.913593
18767200000 -44.495804 -161.20798 -11.474071 171.12149 -11.461864 171.17273 -5.6437621 15.550849
19102150000 -22.862684 -101.12705 -11.750814 109.78609 -11.736466 109.83922 -5.7516637 -15.292763
19437100000 -16.129622 -158.20018 -12.415572 47.131931 -12.399322 47.181118 -5.3203053 -45.902729
19772050000 -12.574021 143.03809 -13.4918 -13.120446 -13.480843 -13.084376 -4.7488832 -81.209076
20107000000 -10.887735 87.627342 -14.381614 -68.875816 -14.367189 -68.857048 -4.473289 -118.55941
20441950000 -9.7713594 42.524235 -14.634988 -126.63388 -14.621766 -126.58585 -4.3277917 -155.74164
20776900000 -8.8792744 -5.9527807 -15.411225 175.81245 -15.402954 175.84926 -4.2531486 167.56981
21111850000 -9.1842127 -52.542618 -16.042425 121.28282 -16.025497 121.3298 -4.2310491 132.84344
21446800000 -10.305324 -96.183922 -16.275492 68.911156 -16.268419 68.933899 -4.1504359 99.730995
21781750000 -12.469847 -137.25806 -15.647689 15.092475 -15.633894 15.12751 -4.2219782 66.89756
22116700000 -15.471193 -164.9977 -15.169738 -43.821087 -15.161554 -43.79007 -4.494554 35.754765
22451650000 -16.444906 179.4041 -14.929448 -102.48478 -14.916461 -102.44032 -4.9102035 4.3344884
22786600000 -15.214333 153.52431 -14.641418 -161.14734 -14.623458 -161.08456 -5.6952362 -27.621643
23121550000 -14.366982 113.85361 -14.179664 138.84708 -14.166432 138.93008 -6.9670367 -60.185539
23456500000 -15.112841 71.652672 -13.926513 76.212784 -13.914358 76.210526 -8.9173117 -91.63932
23791450000 -16.576145 36.698673 -14.054657 13.586027 -14.044105 13.63217 -11.245741 -119.86517
24126400000 -17.406157 7.7817202 -14.395905 -48.482616 -14.384196 -48.436909 -13.890535 -146.0912
24461350000 -16.999392 -15.67303 -15.130026 -110.16249 -15.120461 -110.09966 -19.150095 -142.94705
24796300000 -15.061319 -49.291451 -15.317727 -163.99774 -15.310007 -163.97098 -12.451808 -172.76305
25131250000 -14.03602 -88.89579 -15.361016 134.36263 -15.348206 134.40076 -12.056723 155.16296
25466200000 -13.801254 -127.78197 -15.949609 74.20813 -15.943851 74.215515 -10.421079 125.32137
25801150000 -13.936022 -163.88237 -16.59877 17.565876 -16.595856 17.599953 -8.7098255 91.6996
26136100000 -14.946404 158.03065 -16.801962 -38.38266 -16.79508 -38.400475 -7.4704165 57.152882
26471050000 -18.007242 123.79955 -16.87557 -94.374374 -16.856098 -94.340935 -6.5088911 22.825779
26806000000 -24.641975 112.91719 -16.675581 -151.23956 -16.663364 -151.18198 -6.0089636 -11.819482
27140950000 -23.289316 159.55983 -16.464796 149.99261 -16.450851 149.9715 -5.909977 -45.591412
27475900000 -17.825937 144.46295 -16.413404 89.582535 -16.399584 89.660858 -6.0796762 -78.963516
27810850000 -15.291552 121.07595 -16.723001 29.563618 -16.719158 29.541727 -6.3090053 -111.81895
28145800000 -13.133247 96.036766 -17.150024 -28.243845 -17.136545 -28.224953 -6.2793751 -145.14633
28480750000 -11.310382 65.63485 -17.340988 -84.585709 -17.346909 -84.587502 -6.135674 178.77193
28815700000 -10.230974 30.605364 -17.331739 -141.30841 -17.316689 -141.29428 -6.1089625 140.20517
29150650000 -9.8786154 -7.2026367 -17.229315 160.97371 -17.220722 160.99301 -6.2248273 101.03043
29485600000 -9.9803543 -46.651096 -17.184509 103.3278 -17.167179 103.4082 -6.4617491 62.489086
29820550000 -10.517791 -86.831612 -16.965986 45.465092 -16.959385 45.477901 -6.8571 24.341377
30155500000 -11.391267 -125.31324 -16.669777 -13.865479 -16.66453 -13.8331 -7.3516264 -13.989349
30490450000 -12.146051 -159.9836 -16.584017 -74.583961 -16.566082 -74.644218 -8.331727 -53.029541
30825400000 -12.648744 169.53506 -16.777355 -134.43428 -16.767572 -134.42902 -9.766881 -91.342575
31160350000 -13.039331 141.00717 -16.875536 167.75102 -16.854815 167.75262 -11.302797 -131.39932
31495300000 -13.653906 117.16205 -16.662535 109.11002 -16.657488 109.19947 -13.274162 -176.22916
31830250000 -13.77561 98.318947 -16.558901 48.980602 -16.546951 48.89415 -16.291361 136.36905
32165200000 -13.328894 78.744751 -16.70368 -11.304776 -16.699987 -11.253539 -20.855604 91.51075
32500150000 -12.953593 55.284325 -16.883774 -69.528687 -16.866072 -69.543182 -30.73864 62.34586
32835100000 -12.883232 26.295553 -16.745867 -126.38885 -16.741016 -126.36943 -26.464809 173.73727
33170050000 -14.232549 -8.6960945 -15.925797 174.84186 -15.915839 174.82487 -15.971518 140.12059
33505000000 -17.645613 -49.995518 -15.302191 109.62675 -15.298759 109.60809 -10.733089 96.032509
33839950000 -24.852022 -128.31123 -15.612803 43.769085 -15.594404 43.798023 -7.973949 52.946136
34174900000 -20.457479 97.064804 -16.253983 -18.537025 -16.244574 -18.518774 -6.5558662 13.181772
34509850000 -14.935861 37.721554 -16.778076 -78.345154 -16.765827 -78.292595 -5.8586006 -23.782446
34844800000 -12.752872 -11.411542 -17.083796 -137.24065 -17.074286 -137.23959 -5.6264629 -58.59127
35179750000 -12.189364 -58.568703 -17.308878 163.54222 -17.294977 163.57132 -5.5655761 -93.408592
35514700000 -12.276067 -108.24832 -17.492035 105.71429 -17.48229 105.8107 -5.5976954 -131.00061
35849650000 -12.943361 -162.55789 -17.045528 46.861866 -17.036398 46.821041 -6.2033715 -172.6792
36184600000 -14.00498 147.23364 -16.73307 -15.465433 -16.725462 -15.405625 -7.0764799 146.07184
36519550000 -14.811911 108.55792 -16.603981 -78.462608 -16.592306 -78.461693 -7.8162208 106.20477
36854500000 -14.186493 77.702179 -16.752724 -142.71658 -16.742878 -142.67938 -7.9837937 68.793465
37189450000 -13.133911 44.780663 -17.39489 154.30434 -17.387568 154.36707 -7.6389136 31.846783
37524400000 -12.851817 6.9953504 -18.172539 95.413574 -18.152271 95.470459 -7.4107122 -6.2908969
37859350000 -14.704442 -31.11508 -18.380947 41.378052 -18.375929 41.373882 -7.8371491 -42.485378
38194300000 -16.11339 -56.367756 -17.197493 -17.379604 -17.181129 -17.309181 -8.7677975 -75.027153
38529250000 -22.320902 -90.156593 -16.756832 -79.362831 -16.749147 -79.349754 -10.331818 -105.43427
38864200000 -24.74238 -42.718639 -16.055349 -141.24295 -16.036386 -141.21169 -12.220309 -131.13387
39199150000 -19.896313 -52.084747 -15.383076 151.57509 -15.385859 151.60863 -15.319721 -165.28249
39534100000 -17.107056 -80.39888 -15.398167 84.182709 -15.38208 84.213203 -26.597439 -178.31975
39869050000 -15.97804 -123.80602 -15.519393 18.17321 -15.516496 18.160105 -20.779032 -93.973061
40204000000 -17.99769 -175.42253 -15.901145 -47.340446 -15.884277 -47.32732 -13.65321 -122.74371
40538950000 -26.405157 108.06892 -16.461725 -111.00238 -16.463844 -110.8978 -10.385588 -166.44595
40873900000 -26.44309 -72.758736 -16.775352 -171.97781 -16.764977 -172.00958 -8.9698524 142.5584
41208850000 -20.044476 -118.68697 -16.888767 124.27984 -16.885275 124.39973 -8.5672798 91.952087
41543800000 -15.61639 -154.74603 -17.369154 62.241028 -17.362846 62.196941 -7.99333 42.526096
41878750000 -11.992959 162.96088 -17.587837 0.62994772 -17.585777 0.63554859 -7.3222499 -4.3229723
42213700000 -10.176373 114.55691 -18.156763 -61.723328 -18.142851 -61.693424 -6.5817752 -44.667683
42548650000 -9.4347324 67.37484 -19.065603 -120.16396 -19.057356 -120.13955 -5.6857433 -82.44622
42883600000 -9.5553808 21.116056 -19.507059 -172.98273 -19.495373 -172.91132 -5.2884417 -120.19124
43218550000 -9.9614363 -21.708462 -18.883574 134.06926 -18.880016 134.10596 -5.5170951 -156.0094
43553500000 -10.359795 -62.178402 -17.88658 76.640862 -17.870464 76.640877 -6.3931737 170.36137
43888450000 -10.680539 -103.23112 -17.100117 16.714462 -17.094109 16.813129 -7.5850983 139.84065
44223400000 -12.023314 -142.76477 -16.341892 -42.790581 -16.323702 -42.722504 -8.8535156 108.75761
44558350000 -13.392504 -170.99567 -15.529202 -103.86478 -15.527534 -103.76796 -10.406882 73.201569
44893300000 -13.851167 161.52467 -14.750678 -164.64146 -14.745864 -164.62605 -12.682771 33.627907
45228250000 -14.286951 131.93509 -13.731606 135.28534 -13.727308 135.37552 -16.218313 2.1284435
45563200000 -14.972948 106.80701 -12.611179 71.562813 -12.605011 71.598419 -17.967722 -30.555815
45898150000 -15.692952 83.350227 -11.656798 4.5020103 -11.652621 4.5538149 -18.255693 -60.075989
46233100000 -15.469088 58.428738 -11.203457 -62.902752 -11.190992 -62.861115 -16.262253 -79.911682
46568050000 -15.226729 22.280176 -11.048011 -128.97968 -11.04411 -128.90315 -13.915252 -111.53497
46903000000 -15.985208 -24.229706 -10.843949 165.61307 -10.83994 165.62497 -13.14332 -141.44078
47237950000 -18.841803 -67.046646 -10.694904 99.382385 -10.692251 99.454887 -13.410414 -160.62209
47572900000 -20.263016 -94.41172 -10.879477 32.372864 -10.877004 32.41243 -12.374281 -172.17067
47907850000 -19.374937 -133.38712 -11.406942 -33.366501 -11.399533 -33.342342 -10.910767 170.78879
48242800000 -20.870083 174.14386 -12.136776 -97.178658 -12.131196 -97.126717 -9.2584991 151.25517
48577750000 -29.519701 102.70438 -12.893853 -157.78784 -12.897557 -157.69276 -7.9102521 127.45226
48912700000 -20.949406 -78.348701 -13.200619 141.47279 -13.196391 141.4912 -6.7235389 96.997803
49247650000 -11.938011 -132.69295 -13.811899 79.018539 -13.800589 79.050804 -6.3230586 65.03933
49582600000 -8.1302414 179.53461 -14.667059 22.073112 -14.669303 22.149694 -6.1039767 26.811371
49917550000 -6.5380745 139.23801 -14.938622 -33.703465 -14.937524 -33.679394 -6.7418499 -18.465725
50252500000 -5.6723981 107.91611 -14.706326 -90.021484 -14.696044 -89.956383 -8.1335754 -68.086632
50587450000 -4.925138 75.344826 -14.717855 -148.70682 -14.716017 -148.61562 -9.7325382 -118.78315
50922400000 -4.5618839 42.47134 -14.800502 157.08757 -14.8018 157.2112 -11.101535 -169.44768
51257350000 -4.9465599 7.1828132 -13.496633 101.95525 -13.49052 102.05206 -13.469023 142.65182
51592300000 -6.1028304 -25.366583 -12.378385 37.530697 -12.372092 37.600636 -17.560141 122.39254
51927250000 -7.2942047 -56.990318 -12.100274 -27.440796 -12.093625 -27.327984 -17.156919 122.31798
52262200000 -8.9715662 -90.916992 -11.955928 -90.590477 -11.954052 -90.550308 -14.64036 99.844009
52597150000 -12.082794 -119.68657 -11.850746 -155.15884 -11.8485 -155.10242 -15.220167 71.61689
52932100000 -12.693783 -116.61492 -12.420824 142.73567 -12.415755 142.78474 -16.170362 64.184685
53267050000 -8.7218056 -149.9193 -11.924447 84.290802 -11.917063 84.352676 -13.532704 56.944405
53602000000 -7.4600177 166.1962 -11.71358 18.838236 -11.709206 18.940683 -10.841073 19.673191
53936950000 -8.098382 125.65897 -12.127419 -43.760025 -12.120082 -43.679344 -11.252685 -25.493141
54271900000 -9.5857487 98.857948 -11.71369 -104.16386 -11.709737 -104.09251 -13.840584 -64.554031
54606850000 -10.623187 75.611923 -11.818845 -169.83156 -11.808421 -169.74843 -18.704386 -93.023766
54941800000 -11.61049 55.238503 -11.965641 127.86355 -11.96209 127.9837 -23.125406 -93.423294
55276750000 -13.334136 44.435524 -11.767397 64.13726 -11.765646 64.237549 -24.136137 -82.331612
55611700000 -12.457246 54.829521 -11.781148 -3.1440997 -11.77944 -3.0077181 -20.022797 -74.724304
55946650000 -8.3324385 39.489815 -12.841864 -70.069885 -12.841692 -69.988327 -13.880298 -101.39838
56281600000 -6.0388222 9.5132084 -13.813122 -129.83618 -13.803602 -129.73882 -9.9593506 -148.4193
56616550000 -4.9189668 -21.090387 -14.235883 170.65459 -14.232298 170.71933 -7.8815403 155.20247
56951500000 -4.3925924 -53.355217 -14.548616 110.92545 -14.549549 111.02398 -7.9498172 94.46331
57286450000 -4.5157204 -84.896149 -14.688235 51.020363 -14.689751 51.098965 -9.3504934 29.698441
57621400000 -4.7378182 -115.57997 -14.890651 -9.7349663 -14.888077 -9.6618938 -11.428166 -42.250183
57956350000 -5.0038896 -147.80684 -14.976398 -69.875908 -14.976989 -69.807098 -12.766719 -114.41731
58291300000 -5.2961984 179.66496 -14.643648 -130.22786 -14.639359 -130.11967 -14.436152 -175.96205
58626250000 -5.6397719 146.79735 -14.348444 165.30801 -14.345769 165.36539 -17.931252 146.07541
58961200000 -5.9374676 114.71635 -14.746947 99.874321 -14.743941 99.971909 -19.089174 152.0746
59296150000 -6.0826769 82.001152 -15.208719 40.607216 -15.20473 40.690895 -14.293917 141.25845
59631100000 -6.6464405 47.848145 -14.731104 -18.219683 -14.733625 -18.111519 -11.10016 100.67592
59966050000 -8.4298525 14.698243 -13.611456 -81.68679 -13.614127 -81.646278 -11.185366 49.297668
60301000000 -11.37205 -4.1552534 -12.76405 -152.87163 -12.758203 -152.77049 -15.780214 -9.3006535
60635950000 -11.67474 -12.26755 -12.744328 134.46996 -12.741673 134.56894 -36.356125 -69.45314
60970900000 -11.780174 -33.458866 -13.205076 61.708218 -13.199521 61.771687 -23.943497 40.396885
61305850000 -14.343162 -58.286991 -13.916163 -9.6649303 -13.915566 -9.619523 -21.561926 -65.052719
61640800000 -18.656506 -23.343199 -14.81733 -83.678513 -14.808675 -83.615868 -14.255353 -155.30545
61975750000 -10.678225 -25.229687 -17.011297 -157.86679 -17.011944 -157.78728 -9.093708 143.01033
62310700000 -7.2720132 -59.698997 -19.772907 138.76755 -19.765312 138.84579 -7.1454244 93.6147
62645650000 -5.9788747 -94.306847 -21.523087 79.981529 -21.513515 80.118057 -7.1404939 49.266445
62980600000 -5.7416272 -126.23943 -23.279535 19.120005 -23.274275 19.20792 -9.7381487 0.84305871
63315550000 -5.8723798 -159.07199 -25.151302 -40.332905 -25.13097 -40.150768 -18.804438 -72.033768
63650500000 -6.755372 166.65034 -27.534393 -95.755051 -27.516983 -95.680016 -14.195181 124.29386
63985450000 -8.2622223 131.52684 -30.063116 -130.27008 -30.07305 -130.46355 -8.0544386 76.145302
64320400000 -10.045966 92.476364 -27.556475 -172.95308 -27.55135 -172.758 -5.3748631 41.442135
64655350000 -11.861864 48.080265 -26.077127 128.54727 -26.099333 128.59425 -4.157865 8.8398581
64990300000 -12.117428 -8.8400707 -25.169628 71.583984 -25.171574 71.659195 -3.9809813 -21.125065
65325250000 -11.690695 -72.393425 -23.659561 13.167484 -23.658476 13.290457 -4.2536764 -48.484947
65660200000 -12.085731 -126.53539 -22.107101 -49.759239 -22.097029 -49.674282 -4.9081531 -76.201225
65995150000 -12.116782 -171.66318 -21.152723 -116.59551 -21.137255 -116.52674 -5.7607241 -105.66666
66330100000 -13.873627 147.44014 -20.252655 176.5336 -20.240417 176.63144 -7.0330167 -143.19719
66665050000 -17.280479 122.0829 -20.030912 105.2128 -20.028677 105.3357 -8.8473768 165.71413
67000000000 -20.840219 101.29272 -20.950855 38.123024 -20.94735 38.246811 -10.298889 96.618034
